<Qucs Dataset 0.0.18>
<indep acfrequency 19>
  +1.00000000000e+003
  +1.50000000000e+003
  +2.00000000000e+003
  +2.50000000000e+003
  +3.00000000000e+003
  +3.50000000000e+003
  +4.00000000000e+003
  +4.50000000000e+003
  +5.00000000000e+003
  +5.50000000000e+003
  +6.00000000000e+003
  +6.50000000000e+003
  +7.00000000000e+003
  +7.50000000000e+003
  +8.00000000000e+003
  +8.50000000000e+003
  +9.00000000000e+003
  +9.50000000000e+003
  +1.00000000000e+004
</indep>
<indep time 110>
  +0.00000000000e+000
  +9.17431192661e-003
  +1.83486238532e-002
  +2.75229357798e-002
  +3.66972477064e-002
  +4.58715596330e-002
  +5.50458715596e-002
  +6.42201834862e-002
  +7.33944954128e-002
  +8.25688073394e-002
  +9.17431192661e-002
  +1.00917431193e-001
  +1.10091743119e-001
  +1.19266055046e-001
  +1.28440366972e-001
  +1.37614678899e-001
  +1.46788990826e-001
  +1.55963302752e-001
  +1.65137614679e-001
  +1.74311926606e-001
  +1.83486238532e-001
  +1.92660550459e-001
  +2.01834862385e-001
  +2.11009174312e-001
  +2.20183486239e-001
  +2.29357798165e-001
  +2.38532110092e-001
  +2.47706422018e-001
  +2.56880733945e-001
  +2.66055045872e-001
  +2.75229357798e-001
  +2.84403669725e-001
  +2.93577981651e-001
  +3.02752293578e-001
  +3.11926605505e-001
  +3.21100917431e-001
  +3.30275229358e-001
  +3.39449541284e-001
  +3.48623853211e-001
  +3.57798165138e-001
  +3.66972477064e-001
  +3.76146788991e-001
  +3.85321100917e-001
  +3.94495412844e-001
  +4.03669724771e-001
  +4.12844036697e-001
  +4.22018348624e-001
  +4.31192660550e-001
  +4.40366972477e-001
  +4.49541284404e-001
  +4.58715596330e-001
  +4.67889908257e-001
  +4.77064220183e-001
  +4.86238532110e-001
  +4.95412844037e-001
  +5.04587155963e-001
  +5.13761467890e-001
  +5.22935779817e-001
  +5.32110091743e-001
  +5.41284403670e-001
  +5.50458715596e-001
  +5.59633027523e-001
  +5.68807339450e-001
  +5.77981651376e-001
  +5.87155963303e-001
  +5.96330275229e-001
  +6.05504587156e-001
  +6.14678899083e-001
  +6.23853211009e-001
  +6.33027522936e-001
  +6.42201834862e-001
  +6.51376146789e-001
  +6.60550458716e-001
  +6.69724770642e-001
  +6.78899082569e-001
  +6.88073394495e-001
  +6.97247706422e-001
  +7.06422018349e-001
  +7.15596330275e-001
  +7.24770642202e-001
  +7.33944954128e-001
  +7.43119266055e-001
  +7.52293577982e-001
  +7.61467889908e-001
  +7.70642201835e-001
  +7.79816513761e-001
  +7.88990825688e-001
  +7.98165137615e-001
  +8.07339449541e-001
  +8.16513761468e-001
  +8.25688073394e-001
  +8.34862385321e-001
  +8.44036697248e-001
  +8.53211009174e-001
  +8.62385321101e-001
  +8.71559633028e-001
  +8.80733944954e-001
  +8.89908256881e-001
  +8.99082568807e-001
  +9.08256880734e-001
  +9.17431192661e-001
  +9.26605504587e-001
  +9.35779816514e-001
  +9.44954128440e-001
  +9.54128440367e-001
  +9.63302752294e-001
  +9.72477064220e-001
  +9.81651376147e-001
  +9.90825688073e-001
  +1.00000000000e+000
</indep>
<dep Pr1.v acfrequency>
  -8.57188211678e-001-j6.83730407256e-001
  -1.09342407757e+000-j5.81365674808e-001
  -1.21014921679e+000-j4.82493031500e-001
  -1.27305113804e+000-j4.05976297828e-001
  -1.31004033948e+000-j3.48058744396e-001
  -1.33340088663e+000-j3.03568939874e-001
  -1.34901380572e+000-j2.68644275687e-001
  -1.35993092429e+000-j2.40637345527e-001
  -1.36784888738e+000-j2.17743506117e-001
  -1.37376687393e+000-j1.98713191455e-001
  -1.37830237422e+000-j1.82662613226e-001
  -1.38185282322e+000-j1.68952914641e-001
  -1.38468302573e+000-j1.57112653445e-001
  -1.38697474011e+000-j1.46787273521e-001
  -1.38885598124e+000-j1.37705499011e-001
  -1.39041896794e+000-j1.29656524761e-001
  -1.39173146617e+000-j1.22474223573e-001
  -1.39284415929e+000-j1.16026007063e-001
  -1.39379555583e+000-j1.10204835516e-001
</dep>
<dep V1.i acfrequency>
  +8.01721659847e-009+j2.51200843665e-008
  +1.02282327240e-008+j3.35255015553e-008
  +1.13221900316e-008+j4.19635780401e-008
  +1.19134256395e-008+j5.06107361120e-008
  +1.22629702392e-008+j5.94318412015e-008
  +1.24857096460e-008+j6.83785278688e-008
  +1.26366456087e-008+j7.74146712946e-008
  +1.27443201386e-008+j8.65155117680e-008
  +1.28246009320e-008+j9.56641714360e-008
  +1.28868327701e-008+j1.04848963777e-007
  +1.29367907225e-008+j1.14061623178e-007
  +1.29781916450e-008+j1.23296174695e-007
  +1.30135121845e-008+j1.32548209150e-007
  +1.30444522219e-008+j1.41814410527e-007
  +1.30722090056e-008+j1.51092241672e-007
  +1.30976449639e-008+j1.60379730980e-007
  +1.31213938723e-008+j1.69675324701e-007
  +1.31439298663e-008+j1.78977782759e-007
  +1.31656129287e-008+j1.88286103992e-007
</dep>
<dep V2.i acfrequency>
  -8.04279233730e-009-j1.09942098253e-007
  -1.02546245562e-008-j1.60758501673e-007
  -1.13497144105e-008-j2.11607564519e-007
  -1.19424021489e-008-j2.62665709977e-007
  -1.22937197712e-008-j3.13897803285e-007
  -1.25185535133e-008-j3.65255478714e-007
  -1.26719055476e-008-j4.16702611295e-007
  -1.27823179514e-008-j4.68214441167e-007
  -1.28656585756e-008-j5.19774090400e-007
  -1.29312721721e-008-j5.71369872390e-007
  -1.29849337618e-008-j6.22993521461e-007
  -1.30303604491e-008-j6.74639062667e-007
  -1.30700287404e-008-j7.26302086779e-007
  -1.31056385245e-008-j7.77979277750e-007
  -1.31383870585e-008-j8.29668098410e-007
  -1.31691368468e-008-j8.81366577141e-007
  -1.31985216731e-008-j9.33073160172e-007
  -1.32270154408e-008-j9.84786607392e-007
  -1.32549784414e-008-j1.03650591766e-006
</dep>
<dep u1.v acfrequency>
  +8.01721659847e-005+j2.51200843665e-004
  +1.02282327240e-004+j3.35255015553e-004
  +1.13221900316e-004+j4.19635780401e-004
  +1.19134256395e-004+j5.06107361120e-004
  +1.22629702392e-004+j5.94318412015e-004
  +1.24857096460e-004+j6.83785278688e-004
  +1.26366456087e-004+j7.74146712946e-004
  +1.27443201386e-004+j8.65155117680e-004
  +1.28246009320e-004+j9.56641714360e-004
  +1.28868327701e-004+j1.04848963777e-003
  +1.29367907225e-004+j1.14061623178e-003
  +1.29781916450e-004+j1.23296174695e-003
  +1.30135121845e-004+j1.32548209150e-003
  +1.30444522219e-004+j1.41814410527e-003
  +1.30722090056e-004+j1.51092241672e-003
  +1.30976449639e-004+j1.60379730980e-003
  +1.31213938723e-004+j1.69675324701e-003
  +1.31439298663e-004+j1.78977782759e-003
  +1.31656129287e-004+j1.88286103992e-003
</dep>
<dep sd.v acfrequency>
  +8.57268383844e-001+j6.83981608100e-001
  +1.09352635989e+000+j5.81700929823e-001
  +1.21026243869e+000+j4.82912667280e-001
  +1.27317027230e+000+j4.06482405189e-001
  +1.31016296918e+000+j3.48653062808e-001
  +1.33352574373e+000+j3.04252725152e-001
  +1.34914017218e+000+j2.69418422400e-001
  +1.36005836749e+000+j2.41502500645e-001
  +1.36797713339e+000+j2.18700147832e-001
  +1.37389574226e+000+j1.99761681093e-001
  +1.37843174213e+000+j1.83803229458e-001
  +1.38198260514e+000+j1.70185876388e-001
  +1.38481316086e+000+j1.58438135537e-001
  +1.38710518463e+000+j1.48205417626e-001
  +1.38898670333e+000+j1.39216421428e-001
  +1.39054994439e+000+j1.31260322070e-001
  +1.39186268011e+000+j1.24170976820e-001
  +1.39297559858e+000+j1.17815784890e-001
  +1.39392721196e+000+j1.12087696555e-001
</dep>
<dep in1.v acfrequency>
  +3.00000000000e+000
  +3.00000000000e+000
  +3.00000000000e+000
  +3.00000000000e+000
  +3.00000000000e+000
  +3.00000000000e+000
  +3.00000000000e+000
  +3.00000000000e+000
  +3.00000000000e+000
  +3.00000000000e+000
  +3.00000000000e+000
  +3.00000000000e+000
  +3.00000000000e+000
  +3.00000000000e+000
  +3.00000000000e+000
  +3.00000000000e+000
  +3.00000000000e+000
  +3.00000000000e+000
  +3.00000000000e+000
</dep>
<dep _net1.v acfrequency>
  +0.00000000000e+000
  +0.00000000000e+000
  +0.00000000000e+000
  +0.00000000000e+000
  +0.00000000000e+000
  +0.00000000000e+000
  +0.00000000000e+000
  +0.00000000000e+000
  +0.00000000000e+000
  +0.00000000000e+000
  +0.00000000000e+000
  +0.00000000000e+000
  +0.00000000000e+000
  +0.00000000000e+000
  +0.00000000000e+000
  +0.00000000000e+000
  +0.00000000000e+000
  +0.00000000000e+000
  +0.00000000000e+000
</dep>
<dep _net0.v acfrequency>
  +2.99999823059e+000-j2.41872616156e-005
  +2.99999774398e+000-j3.53668703681e-005
  +2.99999750306e+000-j4.65536641943e-005
  +2.99999737267e+000-j5.77864561950e-005
  +2.99999729538e+000-j6.90575167227e-005
  +2.99999724592e+000-j8.03562053172e-005
  +2.99999721218e+000-j9.16745744849e-005
  +2.99999718789e+000-j1.03007177057e-004
  +2.99999716956e+000-j1.14350299888e-004
  +2.99999715512e+000-j1.25701371926e-004
  +2.99999714331e+000-j1.37058574721e-004
  +2.99999713332e+000-j1.48420593787e-004
  +2.99999712459e+000-j1.59786459091e-004
  +2.99999711676e+000-j1.71155441105e-004
  +2.99999710955e+000-j1.82526981650e-004
  +2.99999710279e+000-j1.93900646971e-004
  +2.99999709633e+000-j2.05276095238e-004
  +2.99999709006e+000-j2.16653053626e-004
  +2.99999708390e+000-j2.28031301884e-004
</dep>
<dep Pr1.Vt time>
  +3.18789579001e-006
  +1.53695607568e+000
  +1.53696583502e+000
  +6.72383461225e-001
  +4.83520075301e-001
  +2.68628582140e-003
  +1.53474209701e+000
  +1.53693827610e+000
  +1.53700543955e+000
  +5.94797294982e-001
  +4.14282918816e-001
  -2.34306078009e-001
  +1.53702925704e+000
  +1.53693502802e+000
  +1.53706322380e+000
  +5.60665393981e-001
  +3.11505441990e-001
  -4.92896493963e-001
  +1.53698152008e+000
  +1.53694615464e+000
  +1.08720628582e+000
  +5.23004123230e-001
  +1.61042146595e-001
  -7.43420689910e-001
  +1.53695131402e+000
  +1.53697235101e+000
  +6.47161585321e-001
  +4.71652655049e-001
  -4.16309535900e-002
  +1.53687853214e+000
  +1.53693647988e+000
  +1.53701560923e+000
  +5.87160612316e-001
  +3.96879273718e-001
  -2.85161547732e-001
  +1.53701819259e+000
  +1.53693609482e+000
  +1.53707355532e+000
  +5.53819252951e-001
  +2.85549122723e-001
  -5.44651684437e-001
  +1.53697416363e+000
  +1.53695014775e+000
  +8.87174047909e-001
  +5.14126348146e-001
  +1.24594871886e-001
  -7.76451678181e-001
  +1.53694716276e+000
  +1.53697954329e+000
  +6.27655579034e-001
  +4.58962036305e-001
  -8.77526968436e-002
  +1.53705276081e+000
  +1.53693525888e+000
  +1.53702658420e+000
  +5.80707563541e-001
  +3.78062351095e-001
  -3.36714665890e-001
  +1.53700789133e+000
  +1.53693773640e+000
  +1.53706733872e+000
  +5.46761028071e-001
  +2.57526587720e-001
  -5.95847144959e-001
  +1.53696748425e+000
  +1.53695475017e+000
  +7.74032196978e-001
  +5.04710735839e-001
  +8.58675003833e-002
  +7.57026405966e-001
  +1.53694361147e+000
  +1.53698743639e+000
  +6.15215034998e-001
  +4.45236517879e-001
  -1.35371801436e-001
  +1.53705236073e+000
  +1.53693461057e+000
  +1.53703834364e+000
  +5.73482082320e-001
  +3.57636496170e-001
  -3.88718581358e-001
  +1.53699835836e+000
  +1.53693995657e+000
  +1.53606543046e+000
  +5.39309911039e-001
  +2.27554811472e-001
  -6.46192608271e-001
  +1.53696146094e+000
  +1.53695997409e+000
  +7.11536765511e-001
  +4.94524004843e-001
  +4.52678501629e-002
  +1.50766122913e+000
  +1.53694065162e+000
  +1.53699605836e+000
  +6.04562573931e-001
  +4.30349721515e-001
  -1.84262559032e-001
  +1.53704100844e+000
  +1.53693453365e+000
  +1.53705074636e+000
  +5.66927807230e-001
  +3.35405152473e-001
  -4.40796830389e-001
  +1.53698957616e+000
  +1.53694276055e+000
  +1.33513863152e+000
  +5.31489281215e-001
  +1.95275059830e-001
  -6.95385031063e-001
</dep>
<dep V1.It time>
  -6.31971364267e-014
  -2.05520546496e-004
  -2.05549058224e-004
  -3.78875882216e-008
  -1.79758824497e-008
  +1.83359838712e-008
  -2.05976157015e-004
  -2.05488495070e-004
  -2.05629080965e-004
  -3.79737466772e-008
  -7.67932884964e-009
  +1.49560501174e-008
  -2.05657387871e-004
  -2.05484614553e-004
  -2.05743515957e-004
  -2.09616713853e-008
  +8.10181879016e-009
  +2.70415734951e-008
  -2.05567760378e-004
  -2.05508701488e-004
  -8.35153337542e-008
  -2.31427472193e-008
  +4.73612559775e-009
  +2.16705724263e-008
  -2.05511817049e-004
  -2.05562285586e-004
  -4.53109399808e-008
  -7.01200329439e-009
  +2.00816909912e-008
  -2.05766326220e-004
  -2.05485494523e-004
  -2.05649532228e-004
  -3.66482323183e-008
  -8.14833005301e-009
  +2.39582186802e-008
  -2.05636512429e-004
  -2.05487173336e-004
  -2.05759629921e-004
  -3.07331627766e-008
  -4.68771066519e-010
  +1.91794023593e-008
  -2.05554047540e-004
  -2.05516971909e-004
  -7.66632428362e-008
  -2.17086753601e-008
  +1.57530347153e-008
  +2.50260366081e-008
  -2.05504264188e-004
  -2.05576847561e-004
  -4.28481558282e-008
  -1.45708262261e-008
  +1.14845519541e-008
  -2.05728046344e-004
  -2.05483609122e-004
  -2.05671557561e-004
  -3.65447114161e-008
  +3.94905139076e-009
  +1.62573329121e-008
  -2.05617141723e-004
  -2.05490851395e-004
  -2.05715757144e-004
  -1.79635920560e-008
  +1.00484319115e-008
  +2.01553558776e-008
  -2.05541631838e-004
  -2.05526436348e-004
  -6.14667275701e-008
  -2.12194421057e-008
  +7.87277647982e-009
  -5.40665740698e-006
  -2.05497869263e-004
  -2.05592795348e-004
  -4.16691166918e-008
  -2.35185700161e-009
  +2.13361333674e-008
  -2.05703278240e-004
  -2.05482834435e-004
  -2.05695063946e-004
  -2.50535463794e-008
  +5.06492289713e-009
  +1.74483532470e-008
  -2.05599258247e-004
  -2.05495657491e-004
  -1.82973493254e-004
  -2.77395585756e-008
  +2.21092496707e-009
  +1.99560087031e-008
  -2.05530475720e-004
  -2.05537121084e-004
  -5.29818254004e-008
  -8.75097811724e-009
  +1.70697854122e-008
  -2.08355671874e-004
  -2.05492616802e-004
  -2.05610186574e-004
  -2.98186396774e-008
  -1.13110552826e-008
  +2.23037271904e-008
  -2.05679712168e-004
  -2.05483169372e-004
  -2.05719604495e-004
  -3.23906340044e-008
  +5.88634292396e-009
  +2.69846716311e-008
  -2.05582814149e-004
  -2.05501602744e-004
  -3.53295141530e-007
  -1.49574516139e-008
  +4.27958366002e-009
  +2.97303342181e-008
</dep>
<dep V2.It time>
  +5.23492962473e-014
  -8.66774933694e-003
  -7.66113526694e-003
  +1.10442982720e-007
  +3.41023417737e-008
  -5.57681965915e-008
  -7.25635543005e-004
  -9.92479953722e-003
  -5.00589552952e-003
  +9.36231984448e-008
  +9.39793924384e-009
  -6.63534613298e-008
  -4.07258427255e-003
  -1.00918801578e-002
  -1.73448927912e-003
  +6.29241955361e-008
  -1.99265805944e-008
  -9.36676061366e-008
  -6.94840576499e-003
  -9.15446730160e-003
  +1.80498716455e-007
  +5.08626676524e-008
  -3.14516495734e-008
  -1.14262545765e-007
  -9.00241711922e-003
  -7.19443929271e-003
  +1.13617690424e-007
  +2.06767057592e-008
  -5.99427022899e-008
  -1.39444387887e-003
  -1.00472726677e-002
  -4.38913999859e-003
  +8.93990255064e-008
  +7.08287352353e-009
  -7.81333576025e-008
  -4.70095875582e-003
  -9.99151600592e-003
  -1.05424781685e-003
  +6.92479042438e-008
  -1.49456530162e-008
  -8.99038313271e-008
  -7.43236697422e-003
  -8.83997552512e-003
  +1.64885043698e-007
  +4.66252254601e-008
  -4.45258720478e-008
  -1.40877479570e-007
  -9.29641792265e-003
  -6.69360099324e-003
  +1.07819997906e-007
  +2.49852834724e-008
  -5.48589441246e-008
  -2.07749984152e-003
  -1.01254117896e-002
  -3.74973644635e-003
  +8.61576382499e-008
  -7.18986918427e-009
  -7.37876274412e-008
  -5.30524347733e-003
  -9.84701175241e-003
  -4.09286692663e-004
  +5.43908461672e-008
  -2.78948338780e-008
  -9.45424312236e-008
  -7.88131217749e-003
  -8.48539008373e-003
  +1.43191262812e-007
  +4.30047408614e-008
  -3.98468625969e-008
  -1.55365865188e-006
  -9.54871426009e-003
  -6.16049724929e-003
  +1.03012618361e-007
  +1.06102711569e-008
  -6.70591835582e-008
  -2.75646860437e-003
  -1.01589447042e-002
  -3.09101603672e-003
  +7.22265284954e-008
  -1.11569347620e-008
  -7.76544563178e-008
  -5.88278792202e-003
  -9.65887154362e-003
  +2.77073169052e-006
  +6.07314806970e-008
  -2.32956806413e-008
  -9.92494976495e-008
  -8.29360199044e-003
  -8.09197289286e-003
  +1.29520892458e-007
  +2.84131117182e-008
  -5.17250792822e-008
  -1.46426618680e-004
  -9.75841964128e-003
  -5.59717894390e-003
  +8.88033977227e-008
  +1.59877709996e-008
  -7.08035612296e-008
  -3.42317707877e-003
  -1.01477545318e-002
  -2.41721371730e-003
  +7.67474247406e-008
  -1.51867794530e-008
  -8.98996412292e-008
  -6.43122501147e-003
  -9.42775324036e-003
  +1.96250487007e-007
  +4.58400945196e-008
  -2.78548406993e-008
  -1.14198399467e-007
</dep>
<dep u1.Vt time>
  +3.59999999937e+000
  +1.54479453504e+000
  +1.54450941776e+000
  +3.59962112412e+000
  +3.59982024118e+000
  +3.60018335984e+000
  +1.54023842985e+000
  +1.54511504930e+000
  +1.54370919035e+000
  +3.59962026253e+000
  +3.59992320671e+000
  +3.60014956050e+000
  +1.54342612129e+000
  +1.54515385447e+000
  +1.54256484043e+000
  +3.59979038329e+000
  +3.60008101819e+000
  +3.60027041573e+000
  +1.54432239622e+000
  +1.54491298512e+000
  +3.59916484666e+000
  +3.59976857253e+000
  +3.60004736126e+000
  +3.60021670572e+000
  +1.54488182951e+000
  +1.54437714414e+000
  +3.59954689060e+000
  +3.59992987997e+000
  +3.60020081691e+000
  +1.54233673780e+000
  +1.54514505477e+000
  +1.54350467772e+000
  +3.59963351768e+000
  +3.59991851670e+000
  +3.60023958219e+000
  +1.54363487571e+000
  +1.54512826664e+000
  +1.54240370079e+000
  +3.59969266837e+000
  +3.59999531229e+000
  +3.60019179402e+000
  +1.54445952460e+000
  +1.54483028091e+000
  +3.59923336757e+000
  +3.59978291325e+000
  +3.60015753035e+000
  +3.60025026037e+000
  +1.54495735812e+000
  +1.54423152439e+000
  +3.59957151844e+000
  +3.59985429174e+000
  +3.60011484552e+000
  +1.54271953656e+000
  +1.54516390878e+000
  +1.54328442439e+000
  +3.59963455289e+000
  +3.60003949051e+000
  +3.60016257333e+000
  +1.54382858277e+000
  +1.54509148605e+000
  +1.54284242856e+000
  +3.59982036408e+000
  +3.60010048432e+000
  +3.60020155356e+000
  +1.54458368162e+000
  +1.54473563652e+000
  +3.59938533272e+000
  +3.59978780558e+000
  +3.60007872776e+000
  +3.54593342593e+000
  +1.54502130737e+000
  +1.54407204652e+000
  +3.59958330883e+000
  +3.59997648143e+000
  +3.60021336133e+000
  +1.54296721760e+000
  +1.54517165565e+000
  +1.54304936054e+000
  +3.59974946454e+000
  +3.60005064923e+000
  +3.60017448353e+000
  +1.54400741753e+000
  +1.54504342509e+000
  +1.77026506746e+000
  +3.59972260441e+000
  +3.60002210925e+000
  +3.60019956009e+000
  +1.54469524280e+000
  +1.54462878916e+000
  +3.59947018175e+000
  +3.59991249022e+000
  +3.60017069785e+000
  +1.51644328126e+000
  +1.54507383198e+000
  +1.54389813426e+000
  +3.59970181360e+000
  +3.59988688945e+000
  +3.60022303727e+000
  +1.54320287832e+000
  +1.54516830628e+000
  +1.54280395505e+000
  +3.59967609366e+000
  +3.60005886343e+000
  +3.60026984672e+000
  +1.54417185851e+000
  +1.54498397256e+000
  +3.59646704858e+000
  +3.59985042548e+000
  +3.60004279584e+000
  +3.60029730334e+000
</dep>
<dep sd.Vt time>
  +3.59999681147e+000
  +7.83845935697e-003
  +7.54358273393e-003
  +2.92723766289e+000
  +3.11630016587e+000
  +3.59749707402e+000
  +5.49633283585e-003
  +8.17677319976e-003
  +6.70375080025e-003
  +3.00482296755e+000
  +3.18564028790e+000
  +3.83445563851e+000
  +6.39686424740e-003
  +8.21882644823e-003
  +5.50161662452e-003
  +3.03912498931e+000
  +3.28857557620e+000
  +4.09316690970e+000
  +7.34087613800e-003
  +7.96683047862e-003
  +2.51195856084e+000
  +3.07676444930e+000
  +3.43900521466e+000
  +4.34363739563e+000
  +7.93051548704e-003
  +7.40479312585e-003
  +2.95238530528e+000
  +3.12827722492e+000
  +3.64183177050e+000
  +5.45820566758e-003
  +8.20857488843e-003
  +6.48906849295e-003
  +3.01247290536e+000
  +3.20303924298e+000
  +3.88540112992e+000
  +6.61668311826e-003
  +8.19217181937e-003
  +5.33014547212e-003
  +3.04587341542e+000
  +3.31444618957e+000
  +4.14484347846e+000
  +7.48536097506e-003
  +7.88013316341e-003
  +2.71205931966e+000
  +3.08565656510e+000
  +3.47556265846e+000
  +4.37670193855e+000
  +8.01019535632e-003
  +7.25198110340e-003
  +2.97191593941e+000
  +3.14089225543e+000
  +3.68786754236e+000
  +5.66677574310e-003
  +8.22864989759e-003
  +6.25784019529e-003
  +3.01892698934e+000
  +3.22197713942e+000
  +3.93687723922e+000
  +6.82069144439e-003
  +8.15374965708e-003
  +5.77508984144e-003
  +3.05305933601e+000
  +3.34257389660e+000
  +4.19604869852e+000
