<Qucs Dataset 0.0.18>
<indep acfrequency 19>
  +1.00000000000e+003
  +1.50000000000e+003
  +2.00000000000e+003
  +2.50000000000e+003
  +3.00000000000e+003
  +3.50000000000e+003
  +4.00000000000e+003
  +4.50000000000e+003
  +5.00000000000e+003
  +5.50000000000e+003
  +6.00000000000e+003
  +6.50000000000e+003
  +7.00000000000e+003
  +7.50000000000e+003
  +8.00000000000e+003
  +8.50000000000e+003
  +9.00000000000e+003
  +9.50000000000e+003
  +1.00000000000e+004
</indep>
<indep time 110>
  +0.00000000000e+000
  +9.17431192661e-005
  +1.83486238532e-004
  +2.75229357798e-004
  +3.66972477064e-004
  +4.58715596330e-004
  +5.50458715596e-004
  +6.42201834862e-004
  +7.33944954128e-004
  +8.25688073394e-004
  +9.17431192661e-004
  +1.00917431193e-003
  +1.10091743119e-003
  +1.19266055046e-003
  +1.28440366972e-003
  +1.37614678899e-003
  +1.46788990826e-003
  +1.55963302752e-003
  +1.65137614679e-003
  +1.74311926606e-003
  +1.83486238532e-003
  +1.92660550459e-003
  +2.01834862385e-003
  +2.11009174312e-003
  +2.20183486239e-003
  +2.29357798165e-003
  +2.38532110092e-003
  +2.47706422018e-003
  +2.56880733945e-003
  +2.66055045872e-003
  +2.75229357798e-003
  +2.84403669725e-003
  +2.93577981651e-003
  +3.02752293578e-003
  +3.11926605505e-003
  +3.21100917431e-003
  +3.30275229358e-003
  +3.39449541284e-003
  +3.48623853211e-003
  +3.57798165138e-003
  +3.66972477064e-003
  +3.76146788991e-003
  +3.85321100917e-003
  +3.94495412844e-003
  +4.03669724771e-003
  +4.12844036697e-003
  +4.22018348624e-003
  +4.31192660550e-003
  +4.40366972477e-003
  +4.49541284404e-003
  +4.58715596330e-003
  +4.67889908257e-003
  +4.77064220183e-003
  +4.86238532110e-003
  +4.95412844037e-003
  +5.04587155963e-003
  +5.13761467890e-003
  +5.22935779817e-003
  +5.32110091743e-003
  +5.41284403670e-003
  +5.50458715596e-003
  +5.59633027523e-003
  +5.68807339450e-003
  +5.77981651376e-003
  +5.87155963303e-003
  +5.96330275229e-003
  +6.05504587156e-003
  +6.14678899083e-003
  +6.23853211009e-003
  +6.33027522936e-003
  +6.42201834862e-003
  +6.51376146789e-003
  +6.60550458716e-003
  +6.69724770642e-003
  +6.78899082569e-003
  +6.88073394495e-003
  +6.97247706422e-003
  +7.06422018349e-003
  +7.15596330275e-003
  +7.24770642202e-003
  +7.33944954128e-003
  +7.43119266055e-003
  +7.52293577982e-003
  +7.61467889908e-003
  +7.70642201835e-003
  +7.79816513761e-003
  +7.88990825688e-003
  +7.98165137615e-003
  +8.07339449541e-003
  +8.16513761468e-003
  +8.25688073394e-003
  +8.34862385321e-003
  +8.44036697248e-003
  +8.53211009174e-003
  +8.62385321101e-003
  +8.71559633028e-003
  +8.80733944954e-003
  +8.89908256881e-003
  +8.99082568807e-003
  +9.08256880734e-003
  +9.17431192661e-003
  +9.26605504587e-003
  +9.35779816514e-003
  +9.44954128440e-003
  +9.54128440367e-003
  +9.63302752294e-003
  +9.72477064220e-003
  +9.81651376147e-003
  +9.90825688073e-003
  +1.00000000000e-002
</indep>
<dep Pr1.v acfrequency>
  -1.18522860772e-004+j2.47944547484e-006
  -1.18449178755e-004+j3.71652297450e-006
  -1.18346200830e-004+j4.95043465851e-006
  -1.18214102992e-004+j6.18013931691e-006
  -1.18053110227e-004+j7.40460768444e-006
  -1.17863495560e-004+j8.62282529281e-006
  -1.17645578909e-004+j9.83379523600e-006
  -1.17399725731e-004+j1.10365408309e-005
  -1.17126345533e-004+j1.22301081645e-005
  -1.16825890172e-004+j1.34135685061e-005
  -1.16498852028e-004+j1.45860205795e-005
  -1.16145762021e-004+j1.57465926804e-005
  -1.15767187537e-004+j1.68944446342e-005
  -1.15363730201e-004+j1.80287695792e-005
  -1.14936023585e-004+j1.91487955768e-005
  -1.14484730809e-004+j2.02537870352e-005
  -1.14010542129e-004+j2.13430459583e-005
  -1.13514172419e-004+j2.24159129966e-005
  -1.12996358665e-004+j2.34717683211e-005
</dep>
<dep V1.i acfrequency>
  +2.30605339392e-007+j9.78399234702e-010
  +2.30613563211e-007+j1.46733322476e-009
  +2.30625058871e-007+j1.95594930869e-009
  +2.30639808776e-007+j2.44414292345e-009
  +2.30657790433e-007+j2.93181069998e-009
  +2.30678976545e-007+j3.41885074837e-009
  +2.30703335127e-007+j3.90516293424e-009
  +2.30730829641e-007+j4.39064914475e-009
  +2.30761419144e-007+j4.87521354314e-009
  +2.30795058459e-007+j5.35876280996e-009
  +2.30831698360e-007+j5.84120637015e-009
  +2.30871285764e-007+j6.32245660466e-009
  +2.30913763943e-007+j6.80242904624e-009
  +2.30959072746e-007+j7.28104255763e-009
  +2.31007148829e-007+j7.75821949253e-009
  +2.31057925891e-007+j8.23388583796e-009
  +2.31111334918e-007+j8.70797133901e-009
  +2.31167304435e-007+j9.18040960401e-009
  +2.31225760757e-007+j9.65113819177e-009
</dep>
<dep V2.i acfrequency>
  -6.58365071228e-003-j1.76779420539e-007
  -6.58365091941e-003-j2.65168837852e-007
  -6.58365120940e-003-j3.53557903625e-007
  -6.58365158223e-003-j4.41946500688e-007
  -6.58365203792e-003-j5.30334511883e-007
  -6.58365257646e-003-j6.18721820063e-007
  -6.58365319784e-003-j7.07108308095e-007
  -6.58365390207e-003-j7.95493858863e-007
  -6.58365468914e-003-j8.83878355271e-007
  -6.58365555906e-003-j9.72261680241e-007
  -6.58365651181e-003-j1.06064371672e-006
  -6.58365754740e-003-j1.14902434768e-006
  -6.58365866582e-003-j1.23740345612e-006
  -6.58365986707e-003-j1.32578092506e-006
  -6.58366115114e-003-j1.41415663756e-006
  -6.58366251804e-003-j1.50253047671e-006
  -6.58366396775e-003-j1.59090232562e-006
  -6.58366550028e-003-j1.67927206744e-006
  -6.58366711562e-003-j1.76763958537e-006
</dep>
<dep V3.i acfrequency>
  -6.58365071228e-003-j1.76779420539e-007
  -6.58365091941e-003-j2.65168837852e-007
  -6.58365120940e-003-j3.53557903625e-007
  -6.58365158223e-003-j4.41946500688e-007
  -6.58365203792e-003-j5.30334511883e-007
  -6.58365257646e-003-j6.18721820063e-007
  -6.58365319784e-003-j7.07108308095e-007
  -6.58365390207e-003-j7.95493858863e-007
  -6.58365468914e-003-j8.83878355271e-007
  -6.58365555906e-003-j9.72261680241e-007
  -6.58365651181e-003-j1.06064371672e-006
  -6.58365754740e-003-j1.14902434768e-006
  -6.58365866582e-003-j1.23740345612e-006
  -6.58365986707e-003-j1.32578092506e-006
  -6.58366115114e-003-j1.41415663756e-006
  -6.58366251804e-003-j1.50253047671e-006
  -6.58366396775e-003-j1.59090232562e-006
  -6.58366550028e-003-j1.67927206744e-006
  -6.58366711562e-003-j1.76763958537e-006
</dep>
<dep u1.v acfrequency>
  +2.30605339392e-003+j9.78399234702e-006
  +2.30613563211e-003+j1.46733322476e-005
  +2.30625058871e-003+j1.95594930869e-005
  +2.30639808776e-003+j2.44414292345e-005
  +2.30657790433e-003+j2.93181069998e-005
  +2.30678976545e-003+j3.41885074837e-005
  +2.30703335127e-003+j3.90516293424e-005
  +2.30730829641e-003+j4.39064914475e-005
  +2.30761419144e-003+j4.87521354314e-005
  +2.30795058459e-003+j5.35876280996e-005
  +2.30831698360e-003+j5.84120637015e-005
  +2.30871285764e-003+j6.32245660466e-005
  +2.30913763943e-003+j6.80242904624e-005
  +2.30959072746e-003+j7.28104255763e-005
  +2.31007148829e-003+j7.75821949253e-005
  +2.31057925891e-003+j8.23388583796e-005
  +2.31111334918e-003+j8.70797133901e-005
  +2.31167304435e-003+j9.18040960401e-005
  +2.31225760757e-003+j9.65113819177e-005
</dep>
<dep sd.v acfrequency>
  +2.42457625470e-003+j7.30454687219e-006
  +2.42458481086e-003+j1.09568092731e-005
  +2.42459678954e-003+j1.46090584284e-005
  +2.42461219075e-003+j1.82612899176e-005
  +2.42463101456e-003+j2.19134993154e-005
  +2.42465326101e-003+j2.55656821909e-005
  +2.42467893018e-003+j2.92178341064e-005
  +2.42470802214e-003+j3.28699506165e-005
  +2.42474053697e-003+j3.65220272669e-005
  +2.42477647477e-003+j4.01740595935e-005
  +2.42481583563e-003+j4.38260431219e-005
  +2.42485861966e-003+j4.74779733662e-005
  +2.42490482697e-003+j5.11298458282e-005
  +2.42495445767e-003+j5.47816559971e-005
  +2.42500751187e-003+j5.84333993486e-005
  +2.42506398971e-003+j6.20850713444e-005
  +2.42512389131e-003+j6.57366674319e-005
  +2.42518721677e-003+j6.93881830435e-005
  +2.42525396623e-003+j7.30396135966e-005
</dep>
<dep _net2.v acfrequency>
  +0.00000000000e+000
  +0.00000000000e+000
  +0.00000000000e+000
  +0.00000000000e+000
  +0.00000000000e+000
  +0.00000000000e+000
  +0.00000000000e+000
  +0.00000000000e+000
  +0.00000000000e+000
  +0.00000000000e+000
  +0.00000000000e+000
  +0.00000000000e+000
  +0.00000000000e+000
  +0.00000000000e+000
  +0.00000000000e+000
  +0.00000000000e+000
  +0.00000000000e+000
  +0.00000000000e+000
  +0.00000000000e+000
</dep>
<dep in1.v acfrequency>
  +1.50000000000e+000
  +1.50000000000e+000
  +1.50000000000e+000
  +1.50000000000e+000
  +1.50000000000e+000
  +1.50000000000e+000
  +1.50000000000e+000
  +1.50000000000e+000
  +1.50000000000e+000
  +1.50000000000e+000
  +1.50000000000e+000
  +1.50000000000e+000
  +1.50000000000e+000
  +1.50000000000e+000
  +1.50000000000e+000
  +1.50000000000e+000
  +1.50000000000e+000
  +1.50000000000e+000
  +1.50000000000e+000
</dep>
<dep _net1.v acfrequency>
  +0.00000000000e+000
  +0.00000000000e+000
  +0.00000000000e+000
  +0.00000000000e+000
  +0.00000000000e+000
  +0.00000000000e+000
  +0.00000000000e+000
  +0.00000000000e+000
  +0.00000000000e+000
  +0.00000000000e+000
  +0.00000000000e+000
  +0.00000000000e+000
  +0.00000000000e+000
  +0.00000000000e+000
  +0.00000000000e+000
  +0.00000000000e+000
  +0.00000000000e+000
  +0.00000000000e+000
  +0.00000000000e+000
</dep>
<dep _net0.v acfrequency>
  +5.15968432988e-002-j3.88914725186e-005
  +5.15967977295e-002-j5.83371443275e-005
  +5.15967339327e-002-j7.77827387975e-005
  +5.15966519085e-002-j9.72282301514e-005
  +5.15965516573e-002-j1.16673592614e-004
  +5.15964331792e-002-j1.36118800414e-004
  +5.15962964748e-002-j1.55563827781e-004
  +5.15961415443e-002-j1.75008648950e-004
  +5.15959683883e-002-j1.94453238160e-004
  +5.15957770072e-002-j2.13897569653e-004
  +5.15955674017e-002-j2.33341617678e-004
  +5.15953395724e-002-j2.52785356490e-004
  +5.15950935199e-002-j2.72228760346e-004
  +5.15948292450e-002-j2.91671803513e-004
  +5.15945467485e-002-j3.11114460263e-004
  +5.15942460312e-002-j3.30556704875e-004
  +5.15939270940e-002-j3.49998511636e-004
  +5.15935899379e-002-j3.69439854837e-004
  +5.15932345638e-002-j3.88880708782e-004
</dep>
<dep Pr1.Vt time>
  +1.53703563460e+000
  +1.53697812906e+000
  +1.53694276540e+000
  +1.53693526955e+000
  +1.53695613488e+000
  +1.53700400411e+000
  +1.53706958540e+000
  +7.90551536593e-001
  +4.51971511070e-001
  +2.53238670832e-001
  +1.53660296179e+000
  +1.53703130395e+000
  +1.53697339295e+000
  +1.53694073929e+000
  +1.53693608691e+000
  +1.53695974786e+000
  +1.53701013630e+000
  +1.53707395390e+000
  +7.08489611871e-001
  +4.34017170662e-001
  +2.29606333204e-001
  +1.53702098372e+000
  +1.53702460231e+000
  +1.53696891348e+000
  +1.53693899521e+000
  +1.53693718880e+000
  +1.53696363082e+000
  +1.53701648166e+000
  +1.53707485548e+000
  +6.48975749404e-001
  +4.14896037510e-001
  +2.04524440005e-001
  +1.53706895440e+000
  +1.53701805284e+000
  +1.53696469915e+000
  +1.53693753335e+000
  +1.53693857466e+000
  +1.53696778093e+000
  +1.53702301939e+000
  +1.53706752070e+000
  +6.09364398244e-001
  +3.96689648731e-001
  +1.80476599220e-001
  +1.53707282829e+000
  +1.53701167237e+000
  +1.53696075278e+000
  +1.53693635561e+000
  +1.53694024359e+000
  +1.53697219433e+000
  +1.53702973486e+000
  +1.53703441616e+000
  +5.77983252632e-001
  +3.78018867691e-001
  +1.65600607755e-001
  +1.53706982685e+000
  +1.53700551566e+000
  +1.53695706658e+000
  +1.53693546157e+000
  +1.53694219465e+000
  +1.53697687084e+000
  +1.53703657756e+000
  +1.53684549790e+000
  +5.53476760609e-001
  +3.59612919303e-001
  +2.48219264197e-001
  +1.53706466803e+000
  +1.53699956643e+000
  +1.53695365637e+000
  +1.53693485255e+000
  +1.53694442657e+000
  +1.53698180384e+000
  +1.53704351952e+000
  +1.50317399827e+000
  +5.28364892396e-001
  +3.39119575624e-001
  +8.00197585197e-001
  +1.53705848852e+000
  +1.53699384547e+000
  +1.53695051881e+000
  +1.53693452848e+000
  +1.53694693845e+000
  +1.53698698894e+000
  +1.53705047266e+000
  +1.33050181614e+000
  +5.09251510861e-001
  +3.19556311878e-001
  +1.20077222382e+000
  +1.53705184623e+000
  +1.53698836143e+000
  +1.53694765661e+000
  +1.53693449025e+000
  +1.53694972822e+000
  +1.53699242154e+000
  +1.53705730099e+000
  +1.12251122028e+000
  +4.89473444833e-001
  +2.98327672987e-001
  +1.47270675799e+000
  +1.53704500779e+000
  +1.53698312075e+000
  +1.53694507162e+000
  +1.53693473706e+000
  +1.53695279441e+000
  +1.53699809581e+000
  +1.53706380726e+000
  +8.92992983770e-001
  +4.67643504046e-001
  +2.74668710404e-001
  +1.53232475053e+000
  +1.53703813393e+000
</dep>
<dep V1.It time>
  -2.05677570724e-004
  -2.05563577576e-004
  -2.05497148674e-004
  -2.05484995557e-004
  -2.05527913460e-004
  -2.05623114746e-004
  -2.05750250795e-004
  -3.90767378719e-008
  -7.85404953440e-009
  +3.56560005563e-009
  -2.05730155806e-004
  -2.05665337145e-004
  -2.05554589339e-004
  -2.05493451393e-004
  -2.05486825250e-004
  -2.05535164258e-004
  -2.05635221722e-004
  -2.05756895304e-004
  -2.93188556839e-008
  -4.33187660372e-009
  +4.34320968634e-009
  -2.05746018118e-004
  -2.05652413792e-004
  -2.05546109172e-004
  -2.05490302033e-004
  -2.05489206117e-004
  -2.05542936641e-004
  -2.05647731125e-004
  -2.05754959342e-004
  -1.93347854245e-008
  -3.64618410157e-009
  +4.95311114762e-009
  -2.05753724325e-004
  -2.05639822510e-004
  -2.05538138865e-004
  -2.05487702623e-004
  -2.05492140325e-004
  -2.05551228770e-004
  -2.05660607095e-004
  -2.05730160617e-004
  -1.84596256056e-008
  -2.68955381315e-009
  +4.65026431517e-009
  -2.05750785533e-004
  -2.05627606630e-004
  -2.05530687577e-004
  -2.05485652160e-004
  -2.05495621807e-004
  -2.05560029840e-004
  -2.05673789990e-004
  -2.05622348828e-004
  -1.64511948543e-008
  -1.68835631246e-009
  -3.09804198771e-009
  -2.05742255046e-004
  -2.05615796311e-004
  -2.05523765368e-004
  -2.05484158780e-004
  -2.05499651718e-004
  -2.05569335288e-004
  -2.05687218388e-004
  -2.04911599023e-004
  -1.49960690649e-008
  -7.42489196469e-010
  -8.59450630630e-008
  -2.05731008022e-004
  -2.05604421451e-004
  -2.05517367204e-004
  -2.05483217021e-004
  -2.05504224663e-004
  -2.05579140460e-004
  -2.05700771993e-004
  -6.94890650395e-005
  -1.39271248825e-008
  +1.89023833344e-010
  -1.35009435072e-006
  -2.05718439659e-004
  -2.05593497362e-004
  -2.05511504021e-004
  -2.05482830278e-004
  -2.05509342602e-004
  -2.05589431746e-004
  -2.05714273991e-004
  -5.42435909670e-006
  -7.46501243407e-009
  +1.08368156063e-009
  -1.86542216833e-005
  -2.05705267665e-004
  -2.05583040796e-004
  -2.05506178180e-004
  -2.05482996773e-004
  -2.05514997713e-004
  -2.05600199106e-004
  -2.05727433756e-004
  -5.26722719012e-007
  -4.62894418223e-009
  +1.95179216772e-009
  -2.07118367216e-004
  -2.05691883353e-004
  -2.05573063940e-004
  -2.05501391212e-004
  -2.05483719098e-004
  -2.05521189148e-004
  -2.05611432675e-004
  -2.05739750501e-004
  -6.75117723331e-008
  -2.74813627481e-008
  +2.76243023461e-009
  -2.05886686426e-004
  -2.05678523732e-004
</dep>
<dep V2.It time>
  -3.47761542649e-003
  -7.10436301531e-003
  -9.58115578764e-003
  -1.00759242866e-002
  -8.42438214006e-003
  -5.17685281006e-003
  -1.45761618337e-003
  +6.57001925337e-008
  +1.08835351669e-008
  -2.54767961297e-008
  -3.65443063358e-004
  -3.85782320222e-003
  -7.42194532080e-003
  -9.72825856078e-003
  -1.00036614674e-002
  -8.15671508172e-003
  -4.80365447043e-003
  -1.11934853765e-003
  +5.67411888695e-008
  +6.41720111584e-009
  -2.82814397104e-008
  -6.46507327852e-004
  -4.23762985073e-003
  -7.72654732929e-003
  -9.85446832193e-003
  -9.90956783774e-003
  -7.87353194826e-003
  -4.42674843899e-003
  -7.97758669857e-004
  +4.46972322336e-008
  +3.19150099604e-009
  -3.24072546388e-008
  -9.57144149454e-004
  -4.61584236626e-003
  -8.01711657040e-003
  -9.95935499442e-003
  -9.79396280906e-003
  -7.57580688447e-003
  -4.04753126374e-003
  -4.99798955844e-004
  +4.11360231616e-008
  -4.56174772595e-010
  -3.78051272453e-008
  -1.28750813061e-003
  -4.99104437267e-003
  -8.29265056430e-003
  -1.00425619463e-002
  -9.65724085331e-003
  -7.26456861903e-003
  -3.66744160202e-003
  -2.40035788028e-004
  +3.62048537722e-008
  -3.81022797617e-009
  -4.94730792265e-008
  -1.63234926228e-003
  -5.36185685918e-003
  -8.55220082659e-003
  -1.01038046926e-002
  -9.49986715077e-003
  -6.94089433969e-003
  -3.28796050612e-003
  -5.43295484452e-005
  +3.17959068225e-008
  -7.43445723479e-009
  -1.10710531912e-007
  -1.98827666010e-003
  -5.72693670995e-003
  -8.79487810833e-003
  -1.01428760743e-002
  -9.32237882933e-003
  -6.60590825485e-003
  -2.91063205391e-003
  -4.36085050008e-007
  +2.81083259867e-008
  -1.08906119541e-008
  -3.10551053041e-007
  -2.35276224869e-003
  -6.08497782827e-003
  -9.01984956140e-003
  -1.01596426284e-002
  -9.12538056354e-003
  -6.26078060918e-003
  -2.53708055087e-003
  -2.45393125761e-008
  +1.92321401756e-008
  -1.40299119210e-008
  -6.88554803600e-007
  -2.72372106035e-003
  -6.43471000173e-003
  -9.22634564430e-003
  -1.01540476978e-002
  -8.90954611233e-003
  -5.90672238908e-003
  -2.16905010019e-003
  +7.32858128621e-008
  +1.39847044393e-008
  -1.73760802143e-008
  -7.91836352268e-006
  -3.09932184023e-003
  -6.77490192037e-003
  -9.41366099619e-003
  -1.01261097861e-002
  -8.67561295224e-003
  -5.54498352750e-003
  -1.80847337645e-003
  +5.12186319066e-008
  +3.35859686516e-008
  -2.22435715155e-008
  -1.36679183454e-004
  -3.47788320562e-003
</dep>
<dep V3.It time>
  -3.47761542649e-003
  -7.10436301531e-003
  -9.58115578764e-003
  -1.00759242866e-002
  -8.42438214006e-003
  -5.17685281006e-003
  -1.45761618337e-003
  +6.57001925337e-008
  +1.08835351669e-008
  -2.54767961297e-008
  -3.65443063358e-004
  -3.85782320222e-003
  -7.42194532080e-003
  -9.72825856078e-003
  -1.00036614674e-002
  -8.15671508172e-003
  -4.80365447043e-003
  -1.11934853765e-003
  +5.67411888695e-008
  +6.41720111584e-009
  -2.82814397104e-008
  -6.46507327852e-004
  -4.23762985073e-003
  -7.72654732929e-003
  -9.85446832193e-003
  -9.90956783774e-003
  -7.87353194826e-003
  -4.42674843899e-003
  -7.97758669857e-004
  +4.46972322336e-008
  +3.19150099604e-009
  -3.24072546388e-008
  -9.57144149454e-004
  -4.61584236626e-003
  -8.01711657040e-003
  -9.95935499442e-003
  -9.79396280906e-003
  -7.57580688447e-003
  -4.04753126374e-003
  -4.99798955844e-004
  +4.11360231616e-008
  -4.56174772595e-010
  -3.78051272453e-008
  -1.28750813061e-003
  -4.99104437267e-003
  -8.29265056430e-003
  -1.00425619463e-002
  -9.65724085331e-003
  -7.26456861903e-003
  -3.66744160202e-003
  -2.40035788028e-004
  +3.62048537722e-008
  -3.81022797617e-009
  -4.94730792265e-008
  -1.63234926228e-003
  -5.36185685918e-003
  -8.55220082659e-003
  -1.01038046926e-002
  -9.49986715077e-003
  -6.94089433969e-003
  -3.28796050612e-003
  -5.43295484452e-005
  +3.17959068225e-008
  -7.43445723479e-009
  -1.10710531912e-007
  -1.98827666010e-003
  -5.72693670995e-003
  -8.79487810833e-003
  -1.01428760743e-002
  -9.32237882933e-003
  -6.60590825485e-003
  -2.91063205391e-003
  -4.36085050008e-007
  +2.81083259867e-008
  -1.08906119541e-008
  -3.10551053041e-007
  -2.35276224869e-003
  -6.08497782827e-003
  -9.01984956140e-003
  -1.01596426284e-002
  -9.12538056354e-003
  -6.26078060918e-003
  -2.53708055087e-003
  -2.45393125761e-008
  +1.92321401756e-008
  -1.40299119210e-008
  -6.88554803600e-007
  -2.72372106035e-003
  -6.43471000173e-003
  -9.22634564430e-003
  -1.01540476978e-002
  -8.90954611233e-003
  -5.90672238908e-003
  -2.16905010019e-003
  +7.32858128621e-008
  +1.39847044393e-008
  -1.73760802143e-008
  -7.91836352268e-006
  -3.09932184023e-003
  -6.77490192037e-003
  -9.41366099619e-003
  -1.01261097861e-002
  -8.67561295224e-003
  -5.54498352750e-003
  -1.80847337645e-003
  +5.12186319066e-008
  +3.35859686516e-008
  -2.22435715155e-008
  -1.36679183454e-004
  -3.47788320562e-003
</dep>
<dep u1.Vt time>
  +1.54322429276e+000
  +1.54436422424e+000
  +1.54502851326e+000
  +1.54515004443e+000
  +1.54472086540e+000
  +1.54376885254e+000
