<Qucs Dataset 0.0.18>
<indep acfrequency 19>
  +1.00000000000e+003
  +1.50000000000e+003
  +2.00000000000e+003
  +2.50000000000e+003
  +3.00000000000e+003
  +3.50000000000e+003
  +4.00000000000e+003
  +4.50000000000e+003
  +5.00000000000e+003
  +5.50000000000e+003
  +6.00000000000e+003
  +6.50000000000e+003
  +7.00000000000e+003
  +7.50000000000e+003
  +8.00000000000e+003
  +8.50000000000e+003
  +9.00000000000e+003
  +9.50000000000e+003
  +1.00000000000e+004
</indep>
<indep time 110>
  +0.00000000000e+000
  +9.17431192661e-005
  +1.83486238532e-004
  +2.75229357798e-004
  +3.66972477064e-004
  +4.58715596330e-004
  +5.50458715596e-004
  +6.42201834862e-004
  +7.33944954128e-004
  +8.25688073394e-004
  +9.17431192661e-004
  +1.00917431193e-003
  +1.10091743119e-003
  +1.19266055046e-003
  +1.28440366972e-003
  +1.37614678899e-003
  +1.46788990826e-003
  +1.55963302752e-003
  +1.65137614679e-003
  +1.74311926606e-003
  +1.83486238532e-003
  +1.92660550459e-003
  +2.01834862385e-003
  +2.11009174312e-003
  +2.20183486239e-003
  +2.29357798165e-003
  +2.38532110092e-003
  +2.47706422018e-003
  +2.56880733945e-003
  +2.66055045872e-003
  +2.75229357798e-003
  +2.84403669725e-003
  +2.93577981651e-003
  +3.02752293578e-003
  +3.11926605505e-003
  +3.21100917431e-003
  +3.30275229358e-003
  +3.39449541284e-003
  +3.48623853211e-003
  +3.57798165138e-003
  +3.66972477064e-003
  +3.76146788991e-003
  +3.85321100917e-003
  +3.94495412844e-003
  +4.03669724771e-003
  +4.12844036697e-003
  +4.22018348624e-003
  +4.31192660550e-003
  +4.40366972477e-003
  +4.49541284404e-003
  +4.58715596330e-003
  +4.67889908257e-003
  +4.77064220183e-003
  +4.86238532110e-003
  +4.95412844037e-003
  +5.04587155963e-003
  +5.13761467890e-003
  +5.22935779817e-003
  +5.32110091743e-003
  +5.41284403670e-003
  +5.50458715596e-003
  +5.59633027523e-003
  +5.68807339450e-003
  +5.77981651376e-003
  +5.87155963303e-003
  +5.96330275229e-003
  +6.05504587156e-003
  +6.14678899083e-003
  +6.23853211009e-003
  +6.33027522936e-003
  +6.42201834862e-003
  +6.51376146789e-003
  +6.60550458716e-003
  +6.69724770642e-003
  +6.78899082569e-003
  +6.88073394495e-003
  +6.97247706422e-003
  +7.06422018349e-003
  +7.15596330275e-003
  +7.24770642202e-003
  +7.33944954128e-003
  +7.43119266055e-003
  +7.52293577982e-003
  +7.61467889908e-003
  +7.70642201835e-003
  +7.79816513761e-003
  +7.88990825688e-003
  +7.98165137615e-003
  +8.07339449541e-003
  +8.16513761468e-003
  +8.25688073394e-003
  +8.34862385321e-003
  +8.44036697248e-003
  +8.53211009174e-003
  +8.62385321101e-003
  +8.71559633028e-003
  +8.80733944954e-003
  +8.89908256881e-003
  +8.99082568807e-003
  +9.08256880734e-003
  +9.17431192661e-003
  +9.26605504587e-003
  +9.35779816514e-003
  +9.44954128440e-003
  +9.54128440367e-003
  +9.63302752294e-003
  +9.72477064220e-003
  +9.81651376147e-003
  +9.90825688073e-003
  +1.00000000000e-002
</indep>
<dep V1.i acfrequency>
  +0.00000000000e+000
  +0.00000000000e+000
  +0.00000000000e+000
  +0.00000000000e+000
  +0.00000000000e+000
  +0.00000000000e+000
  +0.00000000000e+000
  +0.00000000000e+000
  +0.00000000000e+000
  +0.00000000000e+000
  +0.00000000000e+000
  +0.00000000000e+000
  +0.00000000000e+000
  +0.00000000000e+000
  +0.00000000000e+000
  +0.00000000000e+000
  +0.00000000000e+000
  +0.00000000000e+000
  +0.00000000000e+000
</dep>
<dep in.v acfrequency>
  +0.00000000000e+000
  +0.00000000000e+000
  +0.00000000000e+000
  +0.00000000000e+000
  +0.00000000000e+000
  +0.00000000000e+000
  +0.00000000000e+000
  +0.00000000000e+000
  +0.00000000000e+000
  +0.00000000000e+000
  +0.00000000000e+000
  +0.00000000000e+000
  +0.00000000000e+000
  +0.00000000000e+000
  +0.00000000000e+000
  +0.00000000000e+000
  +0.00000000000e+000
  +0.00000000000e+000
  +0.00000000000e+000
</dep>
<dep _net0.v acfrequency>
  -0.00000000000e+000
  -0.00000000000e+000
  -0.00000000000e+000
  -0.00000000000e+000
  -0.00000000000e+000
  -0.00000000000e+000
  -0.00000000000e+000
  -0.00000000000e+000
  -0.00000000000e+000
  -0.00000000000e+000
  -0.00000000000e+000
  -0.00000000000e+000
  -0.00000000000e+000
  -0.00000000000e+000
  -0.00000000000e+000
  -0.00000000000e+000
  -0.00000000000e+000
  -0.00000000000e+000
  -0.00000000000e+000
</dep>
<dep out2.v acfrequency>
  +0.00000000000e+000
  +0.00000000000e+000
  +0.00000000000e+000
  +0.00000000000e+000
  +0.00000000000e+000
  +0.00000000000e+000
  +0.00000000000e+000
  +0.00000000000e+000
  +0.00000000000e+000
  +0.00000000000e+000
  +0.00000000000e+000
  +0.00000000000e+000
  +0.00000000000e+000
  +0.00000000000e+000
  +0.00000000000e+000
  +0.00000000000e+000
  +0.00000000000e+000
  +0.00000000000e+000
  +0.00000000000e+000
</dep>
<dep _net1.v acfrequency>
  +0.00000000000e+000
  +0.00000000000e+000
  +0.00000000000e+000
  +0.00000000000e+000
  +0.00000000000e+000
  +0.00000000000e+000
  +0.00000000000e+000
  +0.00000000000e+000
  +0.00000000000e+000
  +0.00000000000e+000
  +0.00000000000e+000
  +0.00000000000e+000
  +0.00000000000e+000
  +0.00000000000e+000
  +0.00000000000e+000
  +0.00000000000e+000
  +0.00000000000e+000
  +0.00000000000e+000
  +0.00000000000e+000
</dep>
<dep out.v acfrequency>
  +0.00000000000e+000
  +0.00000000000e+000
  +0.00000000000e+000
  +0.00000000000e+000
  +0.00000000000e+000
  +0.00000000000e+000
  +0.00000000000e+000
  +0.00000000000e+000
  +0.00000000000e+000
  +0.00000000000e+000
  +0.00000000000e+000
  +0.00000000000e+000
  +0.00000000000e+000
  +0.00000000000e+000
  +0.00000000000e+000
  +0.00000000000e+000
  +0.00000000000e+000
  +0.00000000000e+000
  +0.00000000000e+000
</dep>
<dep V1.It time>
  +0.00000000000e+000
  +0.00000000000e+000
  +0.00000000000e+000
  +0.00000000000e+000
  +0.00000000000e+000
  +0.00000000000e+000
  +0.00000000000e+000
  +0.00000000000e+000
  +0.00000000000e+000
  +0.00000000000e+000
  +0.00000000000e+000
  -6.60799997419e-004
  -6.59628229755e-004
  -6.59628229022e-004
  -6.59628229118e-004
  -6.59628229110e-004
  -6.59628229122e-004
  -6.59628229129e-004
  -6.59628229120e-004
  -6.59628229130e-004
  -6.59628229125e-004
  -6.59628229121e-004
  +7.75302349647e-005
  +3.65034877499e-014
  -3.12880391810e-014
  -2.97904262823e-014
  -2.83645185371e-014
  -2.70068814404e-014
  -2.57142458295e-014
  -2.44834976332e-014
  -2.33116735320e-014
  -2.21959510867e-014
  -2.11336433773e-014
  -2.01221921421e-014
  -1.91591617150e-014
  -1.82422332141e-014
  -1.73691991448e-014
  -1.65379579687e-014
  -1.57465077590e-014
  -1.49929431290e-014
  -1.42754502031e-014
  -1.35923015484e-014
  -1.29418525771e-014
  -1.23225377436e-014
  -1.17328664854e-014
  -1.11714193236e-014
  -1.06368450292e-014
  -1.01278567518e-014
  -9.64323008350e-015
  -9.18179845167e-015
  -8.74245119732e-015
  -8.32413126171e-015
  -7.92583175122e-015
  -7.54659421766e-015
  -7.18550609297e-015
  -6.84169875845e-015
  -6.51434541756e-015
  -6.20265769392e-015
  -5.90588596520e-015
  -5.62331620234e-015
  -5.35426880956e-015
  -5.09809622082e-015
  -4.85418271473e-015
  -4.62194052662e-015
  -4.40081185042e-015
  -4.19026456619e-015
  -3.98979219220e-015
  -3.79891264732e-015
  -3.61716678647e-015
  -3.44411689298e-015
  -3.27934771867e-015
  -3.12246272831e-015
  -2.97308403223e-015
  -2.83085258360e-015
  -2.69542716872e-015
  -2.56648141715e-015
  -2.44370491226e-015
  -2.32680236962e-015
  -2.21549290012e-015
  -2.10950914661e-015
  -2.00859626057e-015
  -1.91251142293e-015
  -1.82102366321e-015
  -1.73391259398e-015
  -1.65096939790e-015
  -1.57199455803e-015
  -1.49679797492e-015
  -1.42519895667e-015
  -1.35702466742e-015
  -1.29211245285e-015
  -1.23030582714e-015
  -1.17145604715e-015
  -1.11542119839e-015
  -1.06206696870e-015
  -1.01126540588e-015
  -9.62893873347e-016
  -9.16836504075e-016
  -8.72982477564e-016
  -8.31226030340e-016
  -7.91467086632e-016
  -7.53609564693e-016
  -7.17563696559e-016
  -6.83242398001e-016
  -6.50562784521e-016
  -6.19446436762e-016
  -5.89818245589e-016
  -5.61607630828e-016
  -5.34746603199e-016
  -5.09169974422e-016
  -4.84817261582e-016
</dep>
<dep in.Vt time>
  +0.00000000000e+000
  +0.00000000000e+000
  +0.00000000000e+000
  +0.00000000000e+000
  +0.00000000000e+000
  +0.00000000000e+000
  +0.00000000000e+000
  +0.00000000000e+000
  +0.00000000000e+000
  +0.00000000000e+000
  +0.00000000000e+000
  +5.00000000000e+000
  +5.00000000000e+000
  +5.00000000000e+000
  +5.00000000000e+000
  +5.00000000000e+000
  +5.00000000000e+000
  +5.00000000000e+000
  +5.00000000000e+000
  +5.00000000000e+000
  +5.00000000000e+000
  +5.00000000000e+000
  +0.00000000000e+000
  +0.00000000000e+000
  +0.00000000000e+000
  +0.00000000000e+000
  +0.00000000000e+000
  +0.00000000000e+000
  +0.00000000000e+000
  +0.00000000000e+000
  +0.00000000000e+000
  +0.00000000000e+000
  +0.00000000000e+000
  +0.00000000000e+000
  +0.00000000000e+000
  +0.00000000000e+000
  +0.00000000000e+000
  +0.00000000000e+000
  +0.00000000000e+000
  +0.00000000000e+000
  +0.00000000000e+000
  +0.00000000000e+000
  +0.00000000000e+000
  +0.00000000000e+000
  +0.00000000000e+000
  +0.00000000000e+000
  +0.00000000000e+000
  +0.00000000000e+000
  +0.00000000000e+000
  +0.00000000000e+000
  +0.00000000000e+000
  +0.00000000000e+000
  +0.00000000000e+000
  +0.00000000000e+000
  +0.00000000000e+000
  +0.00000000000e+000
  +0.00000000000e+000
  +0.00000000000e+000
  +0.00000000000e+000
  +0.00000000000e+000
  +0.00000000000e+000
  +0.00000000000e+000
  +0.00000000000e+000
  +0.00000000000e+000
  +0.00000000000e+000
  +0.00000000000e+000
  +0.00000000000e+000
  +0.00000000000e+000
  +0.00000000000e+000
  +0.00000000000e+000
  +0.00000000000e+000
  +0.00000000000e+000
  +0.00000000000e+000
  +0.00000000000e+000
  +0.00000000000e+000
  +0.00000000000e+000
  +0.00000000000e+000
  +0.00000000000e+000
  +0.00000000000e+000
  +0.00000000000e+000
  +0.00000000000e+000
  +0.00000000000e+000
  +0.00000000000e+000
  +0.00000000000e+000
  +0.00000000000e+000
  +0.00000000000e+000
  +0.00000000000e+000
  +0.00000000000e+000
  +0.00000000000e+000
  +0.00000000000e+000
  +0.00000000000e+000
  +0.00000000000e+000
  +0.00000000000e+000
  +0.00000000000e+000
  +0.00000000000e+000
  +0.00000000000e+000
  +0.00000000000e+000
  +0.00000000000e+000
  +0.00000000000e+000
  +0.00000000000e+000
  +0.00000000000e+000
  +0.00000000000e+000
  +0.00000000000e+000
  +0.00000000000e+000
  +0.00000000000e+000
  +0.00000000000e+000
  +0.00000000000e+000
  +0.00000000000e+000
  +0.00000000000e+000
  +0.00000000000e+000
</dep>
<dep _net0.Vt time>
  +0.00000000000e+000
  +0.00000000000e+000
  +0.00000000000e+000
  +0.00000000000e+000
  +0.00000000000e+000
  +0.00000000000e+000
  +0.00000000000e+000
  +0.00000000000e+000
  +0.00000000000e+000
  +0.00000000000e+000
  +0.00000000000e+000
  +3.73980105555e+000
  +3.74182231599e+000
  +3.74182231629e+000
  +3.74182231627e+000
  +3.74182231626e+000
  +3.74182231625e+000
  +3.74182231624e+000
  +3.74182231626e+000
  +3.74182231626e+000
  +3.74182231625e+000
  +3.74182231628e+000
  +1.43109495056e-001
  +7.27113975906e-011
  -6.23337834262e-011
  -5.93534020134e-011
  -5.65155214987e-011
  -5.38133285473e-011
  -5.12403370896e-011
  -4.87903681217e-011
  -4.64575411209e-011
  -4.42362544721e-011
  -4.21211750471e-011
  -4.01072243415e-011
  -3.81895668412e-011
  -3.63635983048e-011
  -3.46249353120e-011
  -3.29694044582e-011
  -3.13930295308e-011
  -2.98920259265e-011
  -2.84627904999e-011
  -2.71018912820e-011
  -2.58060607651e-011
  -2.45721879746e-011
  -2.33973109157e-011
  -2.22786085390e-011
  -2.12133950709e-011
  -2.01991125784e-011
  -1.92333269866e-011
  -1.83137190245e-011
  -1.74380803102e-011
  -1.66043090739e-011
  -1.58104029645e-011
  -1.50544558041e-011
  -1.43346525958e-011
  -1.36492655860e-011
  -1.29966500101e-011
  -1.23752376298e-011
  -1.17835370342e-011
  -1.12201273696e-011
  -1.06836564725e-011
  -1.01728355961e-011
  -9.68643950735e-012
  -9.22329839407e-012
  -8.78230205995e-012
  -8.36239131034e-012
  -7.96255777284e-012
  -7.58184178631e-012
  -7.21932930600e-012
  -6.87414873959e-012
  -6.54547328101e-012
  -6.23251344960e-012
  -5.93451657123e-012
  -5.65076749788e-012
  -5.38058675064e-012
  -5.12332427689e-012
  -4.87836170647e-012
  -4.64511100715e-012
  -4.42301251152e-012
  -4.21153339473e-012
  -4.01016617465e-012
  -3.81842700267e-012
  -3.63585557527e-012
  -3.46201275507e-012
  -3.29648245698e-012
  -3.13886695601e-012
  -2.98878753309e-012
  -2.84588410201e-012
  -2.70981206203e-012
  -2.58024732499e-012
  -2.45687773389e-012
  -2.33940679478e-012
  -2.22755181946e-012
  -2.12104491566e-012
  -2.01963100173e-012
  -1.92306570012e-012
  -1.83111776135e-012
  -1.74356621127e-012
  -1.66020024831e-012
  -1.58082022405e-012
  -1.50523469892e-012
  -1.43326455309e-012
  -1.36473610209e-012
  -1.29948407041e-012
  -1.23735203252e-012
  -1.17819008611e-012
  -1.12185741054e-012
  -1.06821859435e-012
  -1.01714342508e-012
  -9.68511345057e-013
</dep>
<dep out2.Vt time>
  +0.00000000000e+000
  +0.00000000000e+000
  +0.00000000000e+000
  +0.00000000000e+000
  +0.00000000000e+000
  +0.00000000000e+000
  +0.00000000000e+000
  +0.00000000000e+000
  +0.00000000000e+000
  +0.00000000000e+000
  +0.00000000000e+000
  +3.07005251929e+000
  +3.05393877463e+000
  +3.05393871666e+000
  +3.05393872437e+000
  +3.05393872459e+000
  +3.05393872469e+000
  +3.05393872475e+000
  +3.05393872477e+000
  +3.05393872479e+000
  +3.05393872479e+000
  +3.05393872480e+000
  -5.97548743653e-001
  -1.47788954579e-011
  +1.21147467873e-011
  +1.13725275587e-011
  +1.06757787755e-011
  +1.00217166737e-011
  +9.40772846447e-012
  +8.83135723795e-012
  +8.29029715070e-012
  +7.78238506346e-012
  +7.30558537845e-012
  +6.85799713437e-012
  +6.43782943981e-012
  +6.04340616618e-012
  +5.67314888107e-012
  +5.32557395641e-012
  +4.99929936305e-012
  +4.69301657876e-012
  +4.40549531243e-012
  +4.13559074636e-012
  +3.88221944894e-012
  +3.64437562675e-012
  +3.42110275313e-012
  +3.21150541048e-012
  +3.01474938145e-012
  +2.83004626125e-012
  +2.65665902039e-012
  +2.49389394271e-012
  +2.34110421934e-012
  +2.19767247499e-012
  +2.06302689596e-012
  +1.93663156244e-012
  +1.81797950935e-012
  +1.70659654327e-012
  +1.60204125033e-012
  +1.50388790082e-012
  +1.41174480869e-012
  +1.32525175591e-012
  +1.24405733097e-012
  +1.16784227913e-012
  +1.09629610522e-012
  +1.02913295855e-012
  +9.66082044593e-013
  +9.06891102164e-013
  +8.51330578415e-013
  +7.99175416697e-013
  +7.50213347619e-013
  +7.04252317865e-013
  +6.61107816664e-013
  +6.20600351104e-013
  +5.82574661344e-013
  +5.46883465531e-013
  +5.13379340346e-013
  +4.81927870215e-013
  +4.52405902228e-013
  +4.24686604557e-013
  +3.98664435637e-013
  +3.74244924352e-013
  +3.51317324616e-013
  +3.29792159045e-013
  +3.09587557161e-013
  +2.90621644697e-013
  +2.72816941595e-013
  +2.56108002219e-013
  +2.40420837418e-013
  +2.25690566494e-013
  +2.11863640023e-013
  +1.98879034995e-013
  +1.86696019428e-013
  +1.75264976298e-013
  +1.64528865593e-013
  +1.54451087630e-013
  +1.44990501664e-013
  +1.36102328895e-013
  +1.27762339800e-013
  +1.19937192728e-013
  +1.12590618508e-013
  +1.05697460981e-013
  +9.92215234094e-014
  +9.31420013846e-014
  +8.74346957604e-014
  +8.20749317915e-014
  +7.70420504415e-014
  +7.23202534550e-014
  +6.78925558994e-014
  +6.37306024544e-014
  +5.98261880219e-014
  +5.61589053950e-014
</dep>
<dep _net1.Vt time>
  +0.00000000000e+000
  +0.00000000000e+000
  +0.00000000000e+000
  +0.00000000000e+000
  +0.00000000000e+000
  +0.00000000000e+000
  +0.00000000000e+000
  +0.00000000000e+000
  +0.00000000000e+000
  +0.00000000000e+000
  +0.00000000000e+000
  +3.68406302314e+000
  +3.66472652955e+000
  +3.66472645999e+000
  +3.66472646925e+000
  +3.66472646951e+000
  +3.66472646963e+000
  +3.66472646970e+000
  +3.66472646973e+000
  +3.66472646975e+000
  +3.66472646975e+000
  +3.66472646976e+000
  -7.17058492384e-001
  -1.77346745494e-011
  +1.45376961447e-011
  +1.36470330704e-011
  +1.28109345306e-011
  +1.20260600085e-011
  +1.12892741574e-011
  +1.05976286855e-011
  +9.94835658084e-012
  +9.33886207615e-012
  +8.76670245414e-012
  +8.22959656124e-012
  +7.72539532777e-012
  +7.25208739941e-012
  +6.80777865728e-012
  +6.39068874769e-012
  +5.99915923566e-012
  +5.63161989452e-012
  +5.28659437492e-012
  +4.96270889564e-012
  +4.65866333872e-012
  +4.37325075210e-012
  +4.10532330375e-012
  +3.85380649258e-012
  +3.61769925774e-012
  +3.39605551350e-012
  +3.18799082447e-012
  +2.99267273125e-012
  +2.80932506320e-012
  +2.63720696999e-012
  +2.47563227516e-012
  +2.32395787493e-012
  +2.18157541121e-012
  +2.04791585193e-012
  +1.92244950040e-012
  +1.80466548098e-012
  +1.69409377043e-012
  +1.59030210709e-012
  +1.49286879716e-012
  +1.40141073496e-012
  +1.31555532626e-012
  +1.23495955027e-012
  +1.15929845351e-012
  +1.08826932260e-012
  +1.02159669410e-012
  +9.59010500037e-013
  +9.00256017143e-013
  +8.45102781438e-013
  +7.93329379997e-013
  +7.44720421325e-013
  +6.99089593613e-013
  +6.56260158637e-013
  +6.16055208415e-013
  +5.78313444258e-013
  +5.42887082674e-013
  +5.09623925468e-013
  +4.78397322765e-013
  +4.49093909223e-013
  +4.21580789539e-013
  +3.95750590854e-013
  +3.71505068593e-013
  +3.48745973636e-013
  +3.27380329914e-013
  +3.07329602663e-013
  +2.88505004901e-013
  +2.70828679793e-013
  +2.54236368028e-013
  +2.38654841994e-013
  +2.24035223314e-013
  +2.10317971558e-013
  +1.97434638712e-013
  +1.85341305156e-013
  +1.73988601997e-013
  +1.63322794674e-013
  +1.53314807760e-013
  +1.43924631273e-013
  +1.35108742209e-013
  +1.26836953177e-013
  +1.19065828091e-013
  +1.11770401662e-013
  +1.04921634913e-013
  +9.84899181498e-014
  +9.24504605298e-014
  +8.67843041460e-014
  +8.14710670792e-014
  +7.64767229453e-014
  +7.17914256263e-014
  +6.73906864740e-014
</dep>
<dep out.Vt time>
  +0.00000000000e+000
  +0.00000000000e+000
  +0.00000000000e+000
  +0.00000000000e+000
  +0.00000000000e+000
  +0.00000000000e+000
  +0.00000000000e+000
  +0.00000000000e+000
  +0.00000000000e+000
  +0.00000000000e+000
  +0.00000000000e+000
  +3.15018234286e+000
  +3.14512969700e+000
  +3.14512969629e+000
  +3.14512969638e+000
  +3.14512969637e+000
  +3.14512969637e+000
  +3.14512969636e+000
  +3.14512969637e+000
  +3.14512969637e+000
  +3.14512969637e+000
  +3.14512969639e+000
  -3.57737963846e-001
  -1.81760317944e-010
  +1.55818876677e-010
  +1.48368668167e-010
  +1.41274676279e-010
  +1.34519869381e-010
  +1.28088033921e-010
  +1.21963723932e-010
  +1.16132239578e-010
  +1.10579578222e-010
  +1.05292408377e-010
  +1.00258035050e-010
  +9.54643706660e-011
  +9.08999057714e-011
  +8.65536829116e-011
  +8.24152696185e-011
  +7.84747263542e-011
  +7.47225925569e-011
  +7.11498612637e-011
  +6.77479534096e-011
  +6.45087010427e-011
  +6.14243275036e-011
  +5.84874285463e-011
  +5.56909522523e-011
  +5.30281848586e-011
  +5.04927321727e-011
  +4.80785096155e-011
  +4.57797195892e-011
  +4.35908416914e-011
  +4.15066220226e-011
  +3.95220552058e-011
  +3.76323762725e-011
  +3.58330481846e-011
  +3.41197519899e-011
  +3.24883761877e-011
  +3.09350005745e-011
  +2.94558969959e-011
  +2.80475136725e-011
  +2.67064705342e-011
  +2.54295460356e-011
  +2.42136774006e-011
  +2.30559403911e-011
  +2.19535597939e-011
  +2.09038878871e-011
  +1.99044039917e-011
  +1.89527091949e-011
  +1.80465186131e-011
  +1.71836534836e-011
  +1.63620469978e-011
  +1.55797256514e-011
  +1.48348079473e-011
  +1.41255061941e-011
  +1.34501218644e-011
  +1.28070299892e-011
  +1.21946847977e-011
  +1.16116163562e-011
  +1.10564256362e-011
  +1.05277807088e-011
  +1.00244129953e-011
  +9.54511299537e-012
  +9.08873006517e-012
  +8.65416647101e-012
  +8.24038210422e-012
  +7.84638275175e-012
  +7.47122171055e-012
  +7.11399885515e-012
  +6.77385276980e-012
  +6.44997331515e-012
  +6.14158017670e-012
  +5.84793219373e-012
  +5.56832271638e-012
  +5.30208208093e-012
  +5.04857264705e-012
  +4.80718353193e-012
  +4.57733666972e-012
