<Qucs Dataset 0.0.18>
<indep acfrequency 19>
  +1.00000000000e+003
  +1.50000000000e+003
  +2.00000000000e+003
  +2.50000000000e+003
  +3.00000000000e+003
  +3.50000000000e+003
  +4.00000000000e+003
  +4.50000000000e+003
  +5.00000000000e+003
  +5.50000000000e+003
  +6.00000000000e+003
  +6.50000000000e+003
  +7.00000000000e+003
  +7.50000000000e+003
  +8.00000000000e+003
  +8.50000000000e+003
  +9.00000000000e+003
  +9.50000000000e+003
  +1.00000000000e+004
</indep>
<indep time 110>
  +0.00000000000e+000
  +9.17431192661e-005
  +1.83486238532e-004
  +2.75229357798e-004
  +3.66972477064e-004
  +4.58715596330e-004
  +5.50458715596e-004
  +6.42201834862e-004
  +7.33944954128e-004
  +8.25688073394e-004
  +9.17431192661e-004
  +1.00917431193e-003
  +1.10091743119e-003
  +1.19266055046e-003
  +1.28440366972e-003
  +1.37614678899e-003
  +1.46788990826e-003
  +1.55963302752e-003
  +1.65137614679e-003
  +1.74311926606e-003
  +1.83486238532e-003
  +1.92660550459e-003
  +2.01834862385e-003
  +2.11009174312e-003
  +2.20183486239e-003
  +2.29357798165e-003
  +2.38532110092e-003
  +2.47706422018e-003
  +2.56880733945e-003
  +2.66055045872e-003
  +2.75229357798e-003
  +2.84403669725e-003
  +2.93577981651e-003
  +3.02752293578e-003
  +3.11926605505e-003
  +3.21100917431e-003
  +3.30275229358e-003
  +3.39449541284e-003
  +3.48623853211e-003
  +3.57798165138e-003
  +3.66972477064e-003
  +3.76146788991e-003
  +3.85321100917e-003
  +3.94495412844e-003
  +4.03669724771e-003
  +4.12844036697e-003
  +4.22018348624e-003
  +4.31192660550e-003
  +4.40366972477e-003
  +4.49541284404e-003
  +4.58715596330e-003
  +4.67889908257e-003
  +4.77064220183e-003
  +4.86238532110e-003
  +4.95412844037e-003
  +5.04587155963e-003
  +5.13761467890e-003
  +5.22935779817e-003
  +5.32110091743e-003
  +5.41284403670e-003
  +5.50458715596e-003
  +5.59633027523e-003
  +5.68807339450e-003
  +5.77981651376e-003
  +5.87155963303e-003
  +5.96330275229e-003
  +6.05504587156e-003
  +6.14678899083e-003
  +6.23853211009e-003
  +6.33027522936e-003
  +6.42201834862e-003
  +6.51376146789e-003
  +6.60550458716e-003
  +6.69724770642e-003
  +6.78899082569e-003
  +6.88073394495e-003
  +6.97247706422e-003
  +7.06422018349e-003
  +7.15596330275e-003
  +7.24770642202e-003
  +7.33944954128e-003
  +7.43119266055e-003
  +7.52293577982e-003
  +7.61467889908e-003
  +7.70642201835e-003
  +7.79816513761e-003
  +7.88990825688e-003
  +7.98165137615e-003
  +8.07339449541e-003
  +8.16513761468e-003
  +8.25688073394e-003
  +8.34862385321e-003
  +8.44036697248e-003
  +8.53211009174e-003
  +8.62385321101e-003
  +8.71559633028e-003
  +8.80733944954e-003
  +8.89908256881e-003
  +8.99082568807e-003
  +9.08256880734e-003
  +9.17431192661e-003
  +9.26605504587e-003
  +9.35779816514e-003
  +9.44954128440e-003
  +9.54128440367e-003
  +9.63302752294e-003
  +9.72477064220e-003
  +9.81651376147e-003
  +9.90825688073e-003
  +1.00000000000e-002
</indep>
<dep V1.i acfrequency>
  -2.46567359743e-004+j4.99276478824e-008
  -2.46567359355e-004+j7.48914718198e-008
  -2.46567358813e-004+j9.98552957524e-008
  -2.46567358115e-004+j1.24819119679e-007
  -2.46567357261e-004+j1.49782943598e-007
  -2.46567356253e-004+j1.74746767507e-007
  -2.46567355090e-004+j1.99710591406e-007
  -2.46567353771e-004+j2.24674415292e-007
  -2.46567352298e-004+j2.49638239164e-007
  -2.46567350669e-004+j2.74602063021e-007
  -2.46567348885e-004+j2.99565886861e-007
  -2.46567346947e-004+j3.24529710682e-007
  -2.46567344853e-004+j3.49493534483e-007
  -2.46567342603e-004+j3.74457358263e-007
  -2.46567340199e-004+j3.99421182019e-007
  -2.46567337640e-004+j4.24385005751e-007
  -2.46567334925e-004+j4.49348829456e-007
  -2.46567332056e-004+j4.74312653133e-007
  -2.46567329031e-004+j4.99276476781e-007
</dep>
<dep V3.i acfrequency>
  -2.36684385630e-006-j4.85067236214e-008
  -2.36684423332e-006-j7.27600854283e-008
  -2.36684476113e-006-j9.70134472307e-008
  -2.36684543976e-006-j1.21266809027e-007
  -2.36684626919e-006-j1.45520170816e-007
  -2.36684724942e-006-j1.69773532596e-007
  -2.36684838046e-006-j1.94026894365e-007
  -2.36684966231e-006-j2.18280256122e-007
  -2.36685109496e-006-j2.42533617866e-007
  -2.36685267842e-006-j2.66786979595e-007
  -2.36685441268e-006-j2.91040341307e-007
  -2.36685629775e-006-j3.15293703001e-007
  -2.36685833362e-006-j3.39547064675e-007
  -2.36686052030e-006-j3.63800426328e-007
  -2.36686285779e-006-j3.88053787959e-007
  -2.36686534608e-006-j4.12307149566e-007
  -2.36686798517e-006-j4.36560511147e-007
  -2.36687077507e-006-j4.60813872700e-007
  -2.36687371578e-006-j4.85067234226e-007
</dep>
<dep V2.i acfrequency>
  -2.36684385630e-006-j4.85067236214e-008
  -2.36684423332e-006-j7.27600854283e-008
  -2.36684476113e-006-j9.70134472307e-008
  -2.36684543976e-006-j1.21266809027e-007
  -2.36684626919e-006-j1.45520170816e-007
  -2.36684724942e-006-j1.69773532596e-007
  -2.36684838046e-006-j1.94026894365e-007
  -2.36684966231e-006-j2.18280256122e-007
  -2.36685109496e-006-j2.42533617866e-007
  -2.36685267842e-006-j2.66786979595e-007
  -2.36685441268e-006-j2.91040341307e-007
  -2.36685629775e-006-j3.15293703001e-007
  -2.36685833362e-006-j3.39547064675e-007
  -2.36686052030e-006-j3.63800426328e-007
  -2.36686285779e-006-j3.88053787959e-007
  -2.36686534608e-006-j4.12307149566e-007
  -2.36686798517e-006-j4.36560511147e-007
  -2.36687077507e-006-j4.60813872700e-007
  -2.36687371578e-006-j4.85067234226e-007
</dep>
<dep _net1.v acfrequency>
  +0.00000000000e+000
  +0.00000000000e+000
  +0.00000000000e+000
  +0.00000000000e+000
  +0.00000000000e+000
  +0.00000000000e+000
  +0.00000000000e+000
  +0.00000000000e+000
  +0.00000000000e+000
  +0.00000000000e+000
  +0.00000000000e+000
  +0.00000000000e+000
  +0.00000000000e+000
  +0.00000000000e+000
  +0.00000000000e+000
  +0.00000000000e+000
  +0.00000000000e+000
  +0.00000000000e+000
  +0.00000000000e+000
</dep>
<dep out.v acfrequency>
  +2.46469508514e+000-j1.40685570399e-005
  +2.46469508504e+000-j2.11028355588e-005
  +2.46469508489e+000-j2.81371140765e-005
  +2.46469508470e+000-j3.51713925925e-005
  +2.46469508446e+000-j4.22056711064e-005
  +2.46469508418e+000-j4.92399496179e-005
  +2.46469508387e+000-j5.62742281264e-005
  +2.46469508350e+000-j6.33085066317e-005
  +2.46469508310e+000-j7.03427851332e-005
  +2.46469508265e+000-j7.73770636306e-005
  +2.46469508216e+000-j8.44113421235e-005
  +2.46469508163e+000-j9.14456206114e-005
  +2.46469508105e+000-j9.84798990939e-005
  +2.46469508043e+000-j1.05514177571e-004
  +2.46469507977e+000-j1.12548456041e-004
  +2.46469507907e+000-j1.19582734505e-004
  +2.46469507832e+000-j1.26617012962e-004
  +2.46469507753e+000-j1.33651291411e-004
  +2.46469507670e+000-j1.40685569853e-004
</dep>
<dep in.v acfrequency>
  +2.50000000000e+000
  +2.50000000000e+000
  +2.50000000000e+000
  +2.50000000000e+000
  +2.50000000000e+000
  +2.50000000000e+000
  +2.50000000000e+000
  +2.50000000000e+000
  +2.50000000000e+000
  +2.50000000000e+000
  +2.50000000000e+000
  +2.50000000000e+000
  +2.50000000000e+000
  +2.50000000000e+000
  +2.50000000000e+000
  +2.50000000000e+000
  +2.50000000000e+000
  +2.50000000000e+000
  +2.50000000000e+000
</dep>
<dep _net2.v acfrequency>
  +0.00000000000e+000
  +0.00000000000e+000
  +0.00000000000e+000
  +0.00000000000e+000
  +0.00000000000e+000
  +0.00000000000e+000
  +0.00000000000e+000
  +0.00000000000e+000
  +0.00000000000e+000
  +0.00000000000e+000
  +0.00000000000e+000
  +0.00000000000e+000
  +0.00000000000e+000
  +0.00000000000e+000
  +0.00000000000e+000
  +0.00000000000e+000
  +0.00000000000e+000
  +0.00000000000e+000
  +0.00000000000e+000
</dep>
<dep _net0.v acfrequency>
  +2.49928994684e+000-j1.45520170864e-005
  +2.49928994673e+000-j2.18280256285e-005
  +2.49928994657e+000-j2.91040341692e-005
  +2.49928994637e+000-j3.63800427081e-005
  +2.49928994612e+000-j4.36560512448e-005
  +2.49928994583e+000-j5.09320597787e-005
  +2.49928994549e+000-j5.82080683095e-005
  +2.49928994510e+000-j6.54840768367e-005
  +2.49928994467e+000-j7.27600853598e-005
  +2.49928994420e+000-j8.00360938784e-005
  +2.49928994368e+000-j8.73121023920e-005
  +2.49928994311e+000-j9.45881109002e-005
  +2.49928994250e+000-j1.01864119402e-004
  +2.49928994184e+000-j1.09140127898e-004
  +2.49928994114e+000-j1.16416136388e-004
  +2.49928994040e+000-j1.23692144870e-004
  +2.49928993960e+000-j1.30968153344e-004
  +2.49928993877e+000-j1.38244161810e-004
  +2.49928993789e+000-j1.45520170268e-004
</dep>
<dep V1.It time>
  -1.89177833182e-004
  +2.93133469369e-004
  +3.18857007569e-003
  +3.78258578550e-003
  +1.80923858958e-003
  -2.54044820904e-004
  -1.11270170335e-004
  -4.49260445281e-006
  -4.49566169188e-009
  +1.50466091998e-008
  -6.79594057402e-005
  -2.03339379381e-004
  +6.44066574769e-004
  +3.36498094791e-003
  +3.69573489485e-003
  +1.49357384176e-003
  -2.38985199549e-004
  -9.97141066621e-005
  -7.13262832609e-007
  -1.78092441633e-009
  +7.21932300099e-009
  -8.02153990156e-005
  -2.17516433942e-004
  +9.92390265290e-004
  +3.51651182465e-003
  +3.58264519090e-003
  +1.16229417235e-003
  -2.24422176734e-004
  -8.63186223882e-005
  -6.10807940758e-008
  +4.81913283929e-011
  -1.54281055512e-007
  -9.28951310398e-005
  -2.31611508640e-004
  +1.33029063359e-003
  +3.64252073802e-003
  +3.44378780592e-003
  +8.18354713340e-004
  -2.10785891160e-004
  -7.43510750976e-005
  -1.80355650924e-008
  +2.67619598636e-009
  -2.05285669144e-006
  -1.05943638033e-004
  -2.45576247345e-004
  +1.65392163647e-003
  +3.74253845336e-003
  +3.27968369681e-003
  +4.66852385797e-004
  -1.96727230389e-004
  -6.16891161580e-005
  -1.39408793486e-008
  +4.53111952514e-009
  -7.63646060683e-006
  -1.19308976190e-004
  -2.59359563036e-004
  +1.96079317010e-003
  +3.81617405449e-003
  +3.09098211062e-003
  +1.19031703923e-004
  -1.81631530231e-004
  -5.00714424089e-005
  -1.31133964004e-008
  +6.44053500482e-009
  -1.54177658849e-005
  -1.32941127165e-004
  -2.72917710147e-004
  +2.24899128868e-003
  +3.86316435928e-003
  +2.87841906751e-003
  -1.84571689785e-004
  -1.67855458265e-004
  -3.95289381743e-005
  -1.22627557375e-008
  +8.43150291005e-009
  -2.44324726984e-005
  -1.46790003875e-004
  -2.85933895411e-004
  +2.51703744444e-003
  +3.88333344845e-003
  +2.64287100211e-003
  -2.87619348827e-004
  -1.51679730354e-004
  -2.73654221292e-005
  -8.01018967920e-009
  +1.00695993030e-008
  -3.43303616379e-005
  -1.60803638401e-004
  -2.69247331188e-004
  +2.76366246418e-003
  +3.87660327833e-003
  +2.38533167955e-003
  -2.83010424321e-004
  -1.43173068508e-004
  -1.97152008389e-005
  -7.55552918217e-009
  +1.19207631198e-008
  -4.49474955740e-005
  -1.74932499612e-004
  -4.08435337695e-005
  +2.98778303343e-003
  +3.84300029316e-003
  +2.10696971897e-003
  -2.66197131739e-004
  -1.26282824215e-004
  -1.13089759870e-005
  -6.91254888163e-009
  +1.27839448849e-008
  -5.61814733848e-005
  -1.89127490553e-004
</dep>
<dep V3.It time>
  -2.33698995547e-006
  -5.96013014500e-004
  -3.49231357776e-003
  -4.08647933711e-003
  -2.11262343251e-003
  -1.48303608043e-006
  -2.89294553591e-006
  -1.49567044867e-007
  +1.16386596100e-008
  -5.36914505588e-008
  -1.11098187996e-006
  -2.52250442984e-006
  -9.47100674523e-004
  -3.66876918571e-003
  -3.99960660658e-003
  -1.79687208930e-003
  -2.49762431352e-006
  -1.14007708644e-006
  +8.62180192349e-009
  +4.84848037577e-009
  -6.29018260277e-008
  -1.25414675086e-006
  -2.65881736545e-006
  -1.29554116650e-003
  -3.82033835196e-003
  -3.88648842905e-003
  -1.46549729721e-003
  -2.87663390242e-006
  -1.50693440523e-006
  +6.02959369724e-008
  -1.05869952815e-009
  -8.29172048185e-008
  -1.39643470382e-006
  -2.79276106230e-006
  -1.63354222884e-003
  -3.94637902715e-003
  -3.74759601468e-003
  -1.12145064241e-003
  -2.25030042889e-006
  -8.71457306631e-007
  +5.54108468562e-008
  -7.74839172681e-009
  -1.42745068357e-007
  -1.53911586874e-006
  -2.92391414313e-006
  -1.95726394939e-003
  -4.04642191145e-003
  -3.58345038844e-003
  -7.69818517658e-004
  -1.97605359473e-006
  -1.34817353637e-006
  +4.84372152568e-008
  -1.37277410851e-008
  -2.61562649641e-007
  -1.68213859770e-006
  -3.05510913086e-006
  -2.26421849855e-003
  -4.12007601610e-003
  -3.39470089328e-003
  -4.21802222482e-004
  -2.69833034103e-006
  -1.30593689583e-006
  +4.25440164347e-008
  -1.98352266808e-008
  -4.00535576411e-007
  -1.82442089578e-006
  -3.18269599102e-006
  -2.55249286125e-003
  -4.16707812297e-003
  -3.18208361872e-003
  -1.17571277054e-004
  -2.17823408142e-006
  -7.81904977485e-007
  +3.68037075470e-008
  -2.61410513914e-008
  -5.41759884868e-007
  -1.96537746101e-006
  -3.55464774663e-006
  -2.82060887580e-003
  -4.18725227735e-003
  -2.94647506954e-003
  -8.16211731037e-006
  -4.07509223240e-006
  -2.47673623406e-006
  +2.80246946392e-008
  -3.22774135207e-008
  -6.84161639734e-007
  -2.10648332934e-006
  -3.12318949045e-005
  -3.06729750601e-003
  -4.18052042146e-003
  -2.68886903862e-003
  +6.98227094932e-008
  +1.34152643903e-006
  -5.50767946302e-007
  +2.31344798997e-008
  -3.88820800606e-008
  -8.26370867691e-007
  -2.24699572787e-006
  -2.61728101466e-004
  -3.29147545417e-003
  -4.14690900072e-003
  -2.41043409018e-003
  -3.09293079865e-006
  -1.57031968437e-006
  -3.55967129823e-007
  +1.81976193881e-008
  -4.49721349261e-008
  -9.69359527469e-007
  -2.38589955779e-006
</dep>
<dep V2.It time>
  -2.33698995547e-006
  -5.96013014500e-004
  -3.49231357776e-003
  -4.08647933711e-003
  -2.11262343251e-003
  -1.48303608043e-006
  -2.89294553591e-006
  -1.49567044867e-007
  +1.16386596100e-008
  -5.36914505588e-008
  -1.11098187996e-006
  -2.52250442984e-006
  -9.47100674523e-004
  -3.66876918571e-003
  -3.99960660658e-003
  -1.79687208930e-003
  -2.49762431352e-006
  -1.14007708644e-006
  +8.62180192349e-009
  +4.84848037577e-009
  -6.29018260277e-008
  -1.25414675086e-006
  -2.65881736545e-006
  -1.29554116650e-003
  -3.82033835196e-003
  -3.88648842905e-003
  -1.46549729721e-003
  -2.87663390242e-006
  -1.50693440523e-006
  +6.02959369724e-008
  -1.05869952815e-009
  -8.29172048185e-008
  -1.39643470382e-006
  -2.79276106230e-006
  -1.63354222884e-003
  -3.94637902715e-003
  -3.74759601468e-003
  -1.12145064241e-003
  -2.25030042889e-006
  -8.71457306631e-007
  +5.54108468562e-008
  -7.74839172681e-009
  -1.42745068357e-007
  -1.53911586874e-006
  -2.92391414313e-006
  -1.95726394939e-003
  -4.04642191145e-003
  -3.58345038844e-003
  -7.69818517658e-004
  -1.97605359473e-006
  -1.34817353637e-006
  +4.84372152568e-008
  -1.37277410851e-008
  -2.61562649641e-007
  -1.68213859770e-006
  -3.05510913086e-006
  -2.26421849855e-003
  -4.12007601610e-003
  -3.39470089328e-003
  -4.21802222482e-004
  -2.69833034103e-006
  -1.30593689583e-006
  +4.25440164347e-008
  -1.98352266808e-008
  -4.00535576411e-007
  -1.82442089578e-006
  -3.18269599102e-006
  -2.55249286125e-003
  -4.16707812297e-003
  -3.18208361872e-003
  -1.17571277054e-004
  -2.17823408142e-006
  -7.81904977485e-007
  +3.68037075470e-008
  -2.61410513914e-008
  -5.41759884868e-007
  -1.96537746101e-006
  -3.55464774663e-006
  -2.82060887580e-003
  -4.18725227735e-003
  -2.94647506954e-003
  -8.16211731037e-006
  -4.07509223240e-006
  -2.47673623406e-006
  +2.80246946392e-008
  -3.22774135207e-008
  -6.84161639734e-007
  -2.10648332934e-006
  -3.12318949045e-005
  -3.06729750601e-003
  -4.18052042146e-003
  -2.68886903862e-003
  +6.98227094932e-008
  +1.34152643903e-006
  -5.50767946302e-007
  +2.31344798997e-008
  -3.88820800606e-008
  -8.26370867691e-007
  -2.24699572787e-006
  -2.61728101466e-004
  -3.29147545417e-003
  -4.14690900072e-003
  -2.41043409018e-003
  -3.09293079865e-006
  -1.57031968437e-006
  -3.55967129823e-007
  +1.81976193881e-008
  -4.49721349261e-008
  -9.69359527469e-007
  -2.38589955779e-006
</dep>
<dep _net1.Vt time>
  +3.00000000000e+000
  +3.00000000000e+000
  +3.00000000000e+000
  +3.00000000000e+000
  +3.00000000000e+000
  +3.00000000000e+000
  +3.00000000000e+000
  +3.00000000000e+000
  +3.00000000000e+000
  +3.00000000000e+000
  +3.00000000000e+000
  +3.00000000000e+000
  +3.00000000000e+000
  +3.00000000000e+000
  +3.00000000000e+000
  +3.00000000000e+000
  +3.00000000000e+000
  +3.00000000000e+000
  +3.00000000000e+000
  +3.00000000000e+000
  +3.00000000000e+000
  +3.00000000000e+000
  +3.00000000000e+000
  +3.00000000000e+000
  +3.00000000000e+000
  +3.00000000000e+000
  +3.00000000000e+000
  +3.00000000000e+000
  +3.00000000000e+000
  +3.00000000000e+000
  +3.00000000000e+000
  +3.00000000000e+000
  +3.00000000000e+000
  +3.00000000000e+000
  +3.00000000000e+000
  +3.00000000000e+000
  +3.00000000000e+000
  +3.00000000000e+000
  +3.00000000000e+000
  +3.00000000000e+000
  +3.00000000000e+000
  +3.00000000000e+000
  +3.00000000000e+000
  +3.00000000000e+000
  +3.00000000000e+000
  +3.00000000000e+000
  +3.00000000000e+000
  +3.00000000000e+000
  +3.00000000000e+000
  +3.00000000000e+000
  +3.00000000000e+000
  +3.00000000000e+000
  +3.00000000000e+000
  +3.00000000000e+000
  +3.00000000000e+000
  +3.00000000000e+000
  +3.00000000000e+000
  +3.00000000000e+000
  +3.00000000000e+000
  +3.00000000000e+000
  +3.00000000000e+000
  +3.00000000000e+000
  +3.00000000000e+000
  +3.00000000000e+000
  +3.00000000000e+000
  +3.00000000000e+000
  +3.00000000000e+000
  +3.00000000000e+000
  +3.00000000000e+000
  +3.00000000000e+000
  +3.00000000000e+000
  +3.00000000000e+000
  +3.00000000000e+000
  +3.00000000000e+000
  +3.00000000000e+000
  +3.00000000000e+000
  +3.00000000000e+000
  +3.00000000000e+000
  +3.00000000000e+000
  +3.00000000000e+000
  +3.00000000000e+000
  +3.00000000000e+000
  +3.00000000000e+000
  +3.00000000000e+000
  +3.00000000000e+000
  +3.00000000000e+000
  +3.00000000000e+000
  +3.00000000000e+000
  +3.00000000000e+000
  +3.00000000000e+000
  +3.00000000000e+000
  +3.00000000000e+000
  +3.00000000000e+000
  +3.00000000000e+000
  +3.00000000000e+000
  +3.00000000000e+000
  +3.00000000000e+000
  +3.00000000000e+000
  +3.00000000000e+000
  +3.00000000000e+000
  +3.00000000000e+000
  +3.00000000000e+000
  +3.00000000000e+000
  +3.00000000000e+000
  +3.00000000000e+000
  +3.00000000000e+000
  +3.00000000000e+000
  +3.00000000000e+000
  +3.00000000000e+000
  +3.00000000000e+000
</dep>
<dep out.Vt time>
  +1.89618636770e+000
  +2.99880737753e+000
  +3.00736140663e+000
  +3.00884704569e+000
  +3.00381032603e+000
  +2.52997878203e+000
  +1.13032787991e+000
  +4.59620940353e-002
  -7.07227526580e-005
  +3.82622191103e-004
  +6.83865223964e-001
  +2.03823647337e+000
  +3.00033762133e+000
  +3.00780433470e+000
  +3.00863080920e+000
  +3.00295294586e+000
  +2.39091904815e+000
  +9.98556274737e-001
  +6.97664386840e-003
  -3.03718413571e-005
  +5.51311910523e-004
  +8.06629166003e-001
  +2.17995298324e+000
  +3.00149407135e+000
  +3.00818343870e+000
  +3.00834889258e+000
  +3.00201113725e+000
  +2.25048327363e+000
  +8.69559968252e-001
  +7.77086274472e-006
  +1.00050304024e-005
  +2.34849762682e-003
  +9.33579858847e-001
  +2.32083435349e+000
  +3.00249104212e+000
  +3.00849791221e+000
  +3.00800206694e+000
  +3.00094979281e+000
  +2.10926922365e+000
  +7.44777548558e-001
  -3.70052293672e-004
  +5.02197605448e-005
  +2.17386312853e-002
  +1.06418568219e+000
  +2.46039763849e+000
  +3.00338923687e+000
  +3.00874710979e+000
  +3.00759100627e+000
  +2.99966467189e+000
  +1.96735924737e+000
  +6.24131581133e-001
  -3.41547880074e-004
  +9.10556592272e-005
  +7.81982500651e-002
  +1.19793182958e+000
  +2.59816507096e+000
  +3.00421117274e+000
  +3.00893031300e+000
  +3.00711666001e+000
  +2.99772790652e+000
  +1.82504812447e+000
  +5.08686923809e-001
  -2.91392276409e-004
  +1.32620708821e-004
  +1.56616846150e-001
  +1.33431235704e+000
  +2.73366738750e+000
  +3.00496606506e+000
  +3.00904716527e+000
  +3.00657971490e+000
  +2.99151452316e+000
  +1.68350190442e+000
  +3.99117258928e-001
  -2.42979719341e-004
  +1.75342064888e-004
  +2.47269629537e-001
  +1.47282555778e+000
  +2.86622319959e+000
  +3.00565773621e+000
  +3.00909731585e+000
  +3.00598086568e+000
