<Qucs Dataset 0.0.18>
<indep acfrequency 19>
  +1.00000000000e+003
  +1.50000000000e+003
  +2.00000000000e+003
  +2.50000000000e+003
  +3.00000000000e+003
  +3.50000000000e+003
  +4.00000000000e+003
  +4.50000000000e+003
  +5.00000000000e+003
  +5.50000000000e+003
  +6.00000000000e+003
  +6.50000000000e+003
  +7.00000000000e+003
  +7.50000000000e+003
  +8.00000000000e+003
  +8.50000000000e+003
  +9.00000000000e+003
  +9.50000000000e+003
  +1.00000000000e+004
</indep>
<indep time 110>
  +0.00000000000e+000
  +9.17431192661e-005
  +1.83486238532e-004
  +2.75229357798e-004
  +3.66972477064e-004
  +4.58715596330e-004
  +5.50458715596e-004
  +6.42201834862e-004
  +7.33944954128e-004
  +8.25688073394e-004
  +9.17431192661e-004
  +1.00917431193e-003
  +1.10091743119e-003
  +1.19266055046e-003
  +1.28440366972e-003
  +1.37614678899e-003
  +1.46788990826e-003
  +1.55963302752e-003
  +1.65137614679e-003
  +1.74311926606e-003
  +1.83486238532e-003
  +1.92660550459e-003
  +2.01834862385e-003
  +2.11009174312e-003
  +2.20183486239e-003
  +2.29357798165e-003
  +2.38532110092e-003
  +2.47706422018e-003
  +2.56880733945e-003
  +2.66055045872e-003
  +2.75229357798e-003
  +2.84403669725e-003
  +2.93577981651e-003
  +3.02752293578e-003
  +3.11926605505e-003
  +3.21100917431e-003
  +3.30275229358e-003
  +3.39449541284e-003
  +3.48623853211e-003
  +3.57798165138e-003
  +3.66972477064e-003
  +3.76146788991e-003
  +3.85321100917e-003
  +3.94495412844e-003
  +4.03669724771e-003
  +4.12844036697e-003
  +4.22018348624e-003
  +4.31192660550e-003
  +4.40366972477e-003
  +4.49541284404e-003
  +4.58715596330e-003
  +4.67889908257e-003
  +4.77064220183e-003
  +4.86238532110e-003
  +4.95412844037e-003
  +5.04587155963e-003
  +5.13761467890e-003
  +5.22935779817e-003
  +5.32110091743e-003
  +5.41284403670e-003
  +5.50458715596e-003
  +5.59633027523e-003
  +5.68807339450e-003
  +5.77981651376e-003
  +5.87155963303e-003
  +5.96330275229e-003
  +6.05504587156e-003
  +6.14678899083e-003
  +6.23853211009e-003
  +6.33027522936e-003
  +6.42201834862e-003
  +6.51376146789e-003
  +6.60550458716e-003
  +6.69724770642e-003
  +6.78899082569e-003
  +6.88073394495e-003
  +6.97247706422e-003
  +7.06422018349e-003
  +7.15596330275e-003
  +7.24770642202e-003
  +7.33944954128e-003
  +7.43119266055e-003
  +7.52293577982e-003
  +7.61467889908e-003
  +7.70642201835e-003
  +7.79816513761e-003
  +7.88990825688e-003
  +7.98165137615e-003
  +8.07339449541e-003
  +8.16513761468e-003
  +8.25688073394e-003
  +8.34862385321e-003
  +8.44036697248e-003
  +8.53211009174e-003
  +8.62385321101e-003
  +8.71559633028e-003
  +8.80733944954e-003
  +8.89908256881e-003
  +8.99082568807e-003
  +9.08256880734e-003
  +9.17431192661e-003
  +9.26605504587e-003
  +9.35779816514e-003
  +9.44954128440e-003
  +9.54128440367e-003
  +9.63302752294e-003
  +9.72477064220e-003
  +9.81651376147e-003
  +9.90825688073e-003
  +1.00000000000e-002
</indep>
<dep V1.i acfrequency>
  -2.39187343721e-006+j4.82858932734e-008
  -2.39187108771e-006+j7.24288379837e-008
  -2.39186779851e-006+j9.65717803823e-008
  -2.39186356949e-006+j1.20714719699e-007
  -2.39185840066e-006+j1.44857655162e-007
  -2.39185229201e-006+j1.69000586002e-007
  -2.39184524383e-006+j1.93143511449e-007
  -2.39183725585e-006+j2.17286430731e-007
  -2.39182832783e-006+j2.41429343077e-007
  -2.39181846043e-006+j2.65572247719e-007
  -2.39180765301e-006+j2.89715143884e-007
  -2.39179590597e-006+j3.13858030803e-007
  -2.39178321959e-006+j3.38000907708e-007
  -2.39176959336e-006+j3.62143773824e-007
  -2.39175502730e-006+j3.86286628382e-007
  -2.39173952142e-006+j4.10429470611e-007
  -2.39172307628e-006+j4.34572299745e-007
  -2.39170569149e-006+j4.58715115010e-007
  -2.39168736707e-006+j4.82857915636e-007
</dep>
<dep V2.i acfrequency>
  -7.53805677660e-008-j9.18521842288e-008
  -7.53835395234e-008-j1.37778274369e-007
  -7.53876999838e-008-j1.83704362139e-007
  -7.53930491372e-008-j2.29630446750e-007
  -7.53995869785e-008-j2.75556527411e-007
  -7.54073135031e-008-j3.21482603333e-007
  -7.54162287097e-008-j3.67408673727e-007
  -7.54263325835e-008-j4.13334737802e-007
  -7.54376251065e-008-j4.59260794768e-007
  -7.54501062845e-008-j5.05186843837e-007
  -7.54637760887e-008-j5.51112884216e-007
  -7.54786345161e-008-j5.97038915119e-007
  -7.54946815604e-008-j6.42964935755e-007
  -7.55119171900e-008-j6.88890945334e-007
  -7.55303413915e-008-j7.34816943065e-007
  -7.55499541400e-008-j7.80742928158e-007
  -7.55707554364e-008-j8.26668899828e-007
  -7.55927452481e-008-j8.72594857283e-007
  -7.56159235539e-008-j9.18520799732e-007
</dep>
<dep V3.i acfrequency>
  -7.53805677660e-008-j9.18521842288e-008
  -7.53835395234e-008-j1.37778274369e-007
  -7.53876999838e-008-j1.83704362139e-007
  -7.53930491372e-008-j2.29630446750e-007
  -7.53995869785e-008-j2.75556527411e-007
  -7.54073135031e-008-j3.21482603333e-007
  -7.54162287097e-008-j3.67408673727e-007
  -7.54263325835e-008-j4.13334737802e-007
  -7.54376251065e-008-j4.59260794768e-007
  -7.54501062845e-008-j5.05186843837e-007
  -7.54637760887e-008-j5.51112884216e-007
  -7.54786345161e-008-j5.97038915119e-007
  -7.54946815604e-008-j6.42964935755e-007
  -7.55119171900e-008-j6.88890945334e-007
  -7.55303413915e-008-j7.34816943065e-007
  -7.55499541400e-008-j7.80742928158e-007
  -7.55707554364e-008-j8.26668899828e-007
  -7.55927452481e-008-j8.72594857283e-007
  -7.56159235539e-008-j9.18520799732e-007
</dep>
<dep _net1.v acfrequency>
  +0.00000000000e+000
  +0.00000000000e+000
  +0.00000000000e+000
  +0.00000000000e+000
  +0.00000000000e+000
  +0.00000000000e+000
  +0.00000000000e+000
  +0.00000000000e+000
  +0.00000000000e+000
  +0.00000000000e+000
  +0.00000000000e+000
  +0.00000000000e+000
  +0.00000000000e+000
  +0.00000000000e+000
  +0.00000000000e+000
  +0.00000000000e+000
  +0.00000000000e+000
  +0.00000000000e+000
  +0.00000000000e+000
</dep>
<dep out.v acfrequency>
  +2.46725273965e+000-j2.90048385838e-006
  +2.46725276165e+000-j4.35075069919e-006
  +2.46725279245e+000-j5.80104743183e-006
  +2.46725283206e+000-j7.25138402244e-006
  +2.46725288046e+000-j8.70177043579e-006
  +2.46725293766e+000-j1.01522166365e-005
  +2.46725300367e+000-j1.16027325789e-005
  +2.46725307847e+000-j1.30533282347e-005
  +2.46725316208e+000-j1.45040135810e-005
  +2.46725325448e+000-j1.59547985502e-005
  +2.46725335569e+000-j1.74056931383e-005
  +2.46725346569e+000-j1.88567072876e-005
  +2.46725358449e+000-j2.03078509410e-005
  +2.46725371209e+000-j2.17591340938e-005
  +2.46725384849e+000-j2.32105667100e-005
  +2.46725399370e+000-j2.46621587533e-005
  +2.46725414769e+000-j2.61139201408e-005
  +2.46725431049e+000-j2.75658608641e-005
  +2.46725448209e+000-j2.90179908835e-005
</dep>
<dep _net0.v acfrequency>
  +2.49997738583e+000-j2.75556552686e-005
  +2.49997738494e+000-j4.13334823106e-005
  +2.49997738369e+000-j5.51113086416e-005
  +2.49997738209e+000-j6.88891340249e-005
  +2.49997738012e+000-j8.26669582233e-005
  +2.49997737781e+000-j9.64447810000e-005
  +2.49997737513e+000-j1.10222602118e-004
  +2.49997737210e+000-j1.24000421341e-004
  +2.49997736871e+000-j1.37778238430e-004
  +2.49997736497e+000-j1.51556053151e-004
  +2.49997736087e+000-j1.65333865265e-004
  +2.49997735641e+000-j1.79111674536e-004
  +2.49997735160e+000-j1.92889480727e-004
  +2.49997734642e+000-j2.06667283600e-004
  +2.49997734090e+000-j2.20445082919e-004
  +2.49997733501e+000-j2.34222878448e-004
  +2.49997732877e+000-j2.48000669949e-004
  +2.49997732218e+000-j2.61778457185e-004
  +2.49997731522e+000-j2.75556239920e-004
</dep>
<dep in.v acfrequency>
  +2.50000000000e+000
  +2.50000000000e+000
  +2.50000000000e+000
  +2.50000000000e+000
  +2.50000000000e+000
  +2.50000000000e+000
  +2.50000000000e+000
  +2.50000000000e+000
  +2.50000000000e+000
  +2.50000000000e+000
  +2.50000000000e+000
  +2.50000000000e+000
  +2.50000000000e+000
  +2.50000000000e+000
  +2.50000000000e+000
  +2.50000000000e+000
  +2.50000000000e+000
  +2.50000000000e+000
  +2.50000000000e+000
</dep>
<dep _net2.v acfrequency>
  +0.00000000000e+000
  +0.00000000000e+000
  +0.00000000000e+000
  +0.00000000000e+000
  +0.00000000000e+000
  +0.00000000000e+000
  +0.00000000000e+000
  +0.00000000000e+000
  +0.00000000000e+000
  +0.00000000000e+000
  +0.00000000000e+000
  +0.00000000000e+000
  +0.00000000000e+000
  +0.00000000000e+000
  +0.00000000000e+000
  +0.00000000000e+000
  +0.00000000000e+000
  +0.00000000000e+000
  +0.00000000000e+000
</dep>
<dep V1.It time>
  -1.92941686398e-006
  +5.90332455275e-004
  +3.48687583185e-003
  +4.08111450553e-003
  +2.10719814066e-003
  -2.75543200153e-006
  -1.36056239933e-006
  -2.42554725893e-008
  -9.00512750525e-008
  -7.10317104821e-008
  -6.33763305389e-007
  -1.93117016248e-006
  +9.41679941878e-004
  +3.66345952312e-003
  +3.99429532293e-003
  +1.79158547049e-003
  -2.33886834768e-006
  -9.70501408764e-007
  +4.01139658875e-008
  -6.01708558729e-008
  +7.39027956718e-008
  -7.79380554428e-007
  -2.09512207137e-006
  +1.29021539876e-003
  +3.81489031550e-003
  +3.88115233707e-003
  +1.46018922400e-003
  -2.95812070864e-006
  -3.48566622767e-007
  -4.59785970570e-007
  -4.01547283438e-007
  -3.93919533384e-007
  -1.35982744109e-006
  -2.68858463512e-006
  +1.62775714039e-003
  +3.94058039667e-003
  +3.74260690661e-003
  +1.11569276874e-003
  -1.42276760343e-006
  -1.63389803185e-006
  +6.21553612049e-007
  -6.40962428136e-007
  -6.93807522747e-007
  -1.72627245111e-006
  -3.06355926937e-006
  +1.95252918074e-003
  +4.04166013430e-003
  +3.57742497558e-003
  +7.65122875632e-004
  -2.05207518496e-006
  -7.34632543775e-007
  -2.38482527025e-007
  -2.18274663144e-007
  +9.31325837975e-008
  -1.43402303745e-006
  -2.77354587642e-006
  +2.25861302051e-003
  +4.11446015440e-003
  +3.38908792252e-003
  +4.16288128404e-004
  -2.24787142542e-006
  -2.81741937479e-007
  +1.23469266258e-007
  +1.41747115087e-007
  -3.47077082046e-007
  -1.47799966639e-006
  -2.81241012615e-006
  +2.54725795936e-003
  +4.16182280494e-003
  +3.17655766111e-003
  +1.12751754810e-004
  -1.01732893385e-006
  -1.26672468430e-006
  -5.43063038529e-007
  -5.22859918094e-007
  +2.29740841931e-007
  -9.44547519157e-007
  -3.00272555374e-006
  +2.81470567337e-003
  +4.18132783212e-003
  +2.94056818412e-003
  -1.18519386516e-006
  -2.80013731226e-006
  +7.44845460378e-007
  -9.21015411797e-007
  +9.17200601833e-007
  -1.30424728483e-006
  -2.51674701612e-006
  +2.49247439801e-005
  +3.06285037139e-003
  +4.17419514305e-003
  +2.68442284577e-003
  -2.14846080541e-007
  +1.03745552854e-006
  -1.58287985345e-006
  +1.18685787228e-006
  -1.17693781174e-006
  +6.88966121335e-007
  -2.93313512276e-006
  +2.54955724392e-004
  +3.28727586169e-003
  +4.14265981185e-003
  +2.40623622947e-003
  -2.20824731766e-006
  -1.87769283831e-006
  -7.45112124392e-007
  -7.21244925640e-007
  +7.26736530391e-007
  +1.06177852108e-007
  -1.16792076608e-006
</dep>
<dep V2.It time>
  -8.61814098574e-008
  -5.93336255179e-004
  -3.48988272766e-003
  -4.08412653282e-003
  -2.11019996239e-003
  +1.45087655242e-007
  +1.54511381255e-007
  -7.18316591211e-008
  +3.08412569498e-008
  -9.71194454635e-008
  -1.25245668009e-007
  -1.83432176820e-007
  -9.44770842014e-004
  -3.66638339295e-003
  -3.99721932514e-003
  -1.79450293068e-003
  -2.13878937442e-007
  -1.82966405450e-007
  -1.49006886250e-007
  +1.87867769014e-008
  -1.08798535439e-007
  -1.31790564494e-007
  -1.88995067950e-007
  -1.29316430648e-003
  -3.81795652244e-003
  -3.88410508644e-003
  -1.46313461725e-003
  +5.67525405192e-007
  -5.31138494627e-007
  +9.04332776033e-008
  +2.19653756410e-009
  -1.14958242229e-007
  -1.38831902064e-007
  -1.95201917141e-007
  -1.63116676948e-003
  -3.94399422047e-003
  -3.74521184389e-003
  -1.11909716438e-003
  -3.55485607264e-007
  +4.06312532169e-007
  +8.52603154819e-008
  -1.16700428175e-008
  -9.53225317649e-008
  -1.45602489482e-007
  -2.01264032399e-007
  -1.95489211855e-003
  -4.04402699566e-003
  -3.58107656693e-003
  -7.67477884742e-004
  -6.25897163838e-007
  -5.90436355403e-007
  +9.00099558754e-008
  -2.37830748761e-008
  -8.76750717255e-008
  -1.50610366255e-007
  -2.06503896550e-007
  -2.26184287581e-003
  -4.11769350924e-003
  -3.39231883793e-003
  -4.19507088379e-004
  +5.63482006269e-007
  -5.14597593354e-007
  +8.81226688453e-008
  -3.58271370500e-008
  -9.31564652126e-008
  -1.56159955366e-007
  -2.14996517089e-007
  -2.55012783471e-003
  -4.16469569372e-003
  -3.17970224507e-003
  -1.15593750260e-004
  -5.85797011327e-007
  +6.33570558219e-007
  +7.80631473443e-008
  -5.01256401758e-008
  -9.76022137566e-008
  -1.60274699382e-007
  -5.40574713221e-007
  -2.81824442048e-003
  -4.18486906899e-003
  -2.94410565650e-003
  -2.31123140232e-006
  +6.46301652903e-007
  -5.73177059034e-007
  +6.52376281927e-008
  -5.90073596841e-008
  -1.07740491127e-007
  -1.69510178327e-007
  -2.88675509280e-005
  -3.06494077655e-003
  -4.17812317968e-003
  -2.68651077857e-003
  -3.56261290570e-006
  -3.28520928238e-006
  +2.16905301145e-007
  +5.62530384461e-008
  -7.63237374094e-008
  -1.09146351419e-007
  -1.75498774657e-007
  -2.59145645869e-004
  -3.28910472443e-003
  -4.14449004008e-003
  -2.40806136469e-003
  +6.32150352418e-007
  -6.26308519271e-007
  -5.94880696233e-007
  +4.03977984368e-008
  -8.36607633998e-008
  -1.16777747450e-007
  -1.76147470455e-007
</dep>
<dep V3.It time>
  -8.61814098574e-008
  -5.93336255179e-004
  -3.48988272766e-003
  -4.08412653282e-003
  -2.11019996239e-003
  +1.45087655242e-007
  +1.54511381255e-007
  -7.18316591211e-008
  +3.08412569498e-008
  -9.71194454635e-008
  -1.25245668009e-007
  -1.83432176820e-007
  -9.44770842014e-004
  -3.66638339295e-003
  -3.99721932514e-003
  -1.79450293068e-003
  -2.13878937442e-007
  -1.82966405450e-007
  -1.49006886250e-007
  +1.87867769014e-008
  -1.08798535439e-007
  -1.31790564494e-007
  -1.88995067950e-007
  -1.29316430648e-003
  -3.81795652244e-003
  -3.88410508644e-003
  -1.46313461725e-003
  +5.67525405192e-007
  -5.31138494627e-007
  +9.04332776033e-008
  +2.19653756410e-009
  -1.14958242229e-007
  -1.38831902064e-007
  -1.95201917141e-007
  -1.63116676948e-003
  -3.94399422047e-003
  -3.74521184389e-003
  -1.11909716438e-003
  -3.55485607264e-007
  +4.06312532169e-007
  +8.52603154819e-008
  -1.16700428175e-008
  -9.53225317649e-008
  -1.45602489482e-007
  -2.01264032399e-007
  -1.95489211855e-003
  -4.04402699566e-003
  -3.58107656693e-003
  -7.67477884742e-004
  -6.25897163838e-007
  -5.90436355403e-007
  +9.00099558754e-008
  -2.37830748761e-008
  -8.76750717255e-008
  -1.50610366255e-007
  -2.06503896550e-007
  -2.26184287581e-003
  -4.11769350924e-003
  -3.39231883793e-003
  -4.19507088379e-004
  +5.63482006269e-007
  -5.14597593354e-007
  +8.81226688453e-008
  -3.58271370500e-008
  -9.31564652126e-008
  -1.56159955366e-007
  -2.14996517089e-007
  -2.55012783471e-003
  -4.16469569372e-003
  -3.17970224507e-003
  -1.15593750260e-004
  -5.85797011327e-007
  +6.33570558219e-007
  +7.80631473443e-008
  -5.01256401758e-008
  -9.76022137566e-008
  -1.60274699382e-007
  -5.40574713221e-007
  -2.81824442048e-003
  -4.18486906899e-003
  -2.94410565650e-003
  -2.31123140232e-006
  +6.46301652903e-007
  -5.73177059034e-007
  +6.52376281927e-008
  -5.90073596841e-008
  -1.07740491127e-007
  -1.69510178327e-007
  -2.88675509280e-005
  -3.06494077655e-003
  -4.17812317968e-003
  -2.68651077857e-003
  -3.56261290570e-006
  -3.28520928238e-006
  +2.16905301145e-007
  +5.62530384461e-008
  -7.63237374094e-008
  -1.09146351419e-007
  -1.75498774657e-007
  -2.59145645869e-004
  -3.28910472443e-003
  -4.14449004008e-003
  -2.40806136469e-003
  +6.32150352418e-007
  -6.26308519271e-007
  -5.94880696233e-007
  +4.03977984368e-008
  -8.36607633998e-008
  -1.16777747450e-007
  -1.76147470455e-007
</dep>
<dep _net1.Vt time>
  +3.00000000000e+000
  +3.00000000000e+000
  +3.00000000000e+000
  +3.00000000000e+000
  +3.00000000000e+000
  +3.00000000000e+000
  +3.00000000000e+000
  +3.00000000000e+000
  +3.00000000000e+000
  +3.00000000000e+000
  +3.00000000000e+000
  +3.00000000000e+000
  +3.00000000000e+000
  +3.00000000000e+000
  +3.00000000000e+000
  +3.00000000000e+000
  +3.00000000000e+000
  +3.00000000000e+000
  +3.00000000000e+000
  +3.00000000000e+000
  +3.00000000000e+000
  +3.00000000000e+000
  +3.00000000000e+000
  +3.00000000000e+000
  +3.00000000000e+000
  +3.00000000000e+000
  +3.00000000000e+000
  +3.00000000000e+000
  +3.00000000000e+000
  +3.00000000000e+000
  +3.00000000000e+000
  +3.00000000000e+000
  +3.00000000000e+000
  +3.00000000000e+000
  +3.00000000000e+000
  +3.00000000000e+000
  +3.00000000000e+000
  +3.00000000000e+000
  +3.00000000000e+000
  +3.00000000000e+000
  +3.00000000000e+000
  +3.00000000000e+000
  +3.00000000000e+000
  +3.00000000000e+000
  +3.00000000000e+000
  +3.00000000000e+000
  +3.00000000000e+000
  +3.00000000000e+000
  +3.00000000000e+000
  +3.00000000000e+000
  +3.00000000000e+000
  +3.00000000000e+000
  +3.00000000000e+000
  +3.00000000000e+000
  +3.00000000000e+000
  +3.00000000000e+000
  +3.00000000000e+000
  +3.00000000000e+000
  +3.00000000000e+000
  +3.00000000000e+000
  +3.00000000000e+000
  +3.00000000000e+000
  +3.00000000000e+000
  +3.00000000000e+000
  +3.00000000000e+000
  +3.00000000000e+000
  +3.00000000000e+000
  +3.00000000000e+000
  +3.00000000000e+000
  +3.00000000000e+000
  +3.00000000000e+000
  +3.00000000000e+000
  +3.00000000000e+000
  +3.00000000000e+000
  +3.00000000000e+000
  +3.00000000000e+000
  +3.00000000000e+000
  +3.00000000000e+000
  +3.00000000000e+000
  +3.00000000000e+000
  +3.00000000000e+000
  +3.00000000000e+000
  +3.00000000000e+000
  +3.00000000000e+000
  +3.00000000000e+000
  +3.00000000000e+000
  +3.00000000000e+000
  +3.00000000000e+000
  +3.00000000000e+000
  +3.00000000000e+000
  +3.00000000000e+000
  +3.00000000000e+000
  +3.00000000000e+000
  +3.00000000000e+000
  +3.00000000000e+000
  +3.00000000000e+000
  +3.00000000000e+000
  +3.00000000000e+000
  +3.00000000000e+000
  +3.00000000000e+000
  +3.00000000000e+000
  +3.00000000000e+000
  +3.00000000000e+000
  +3.00000000000e+000
  +3.00000000000e+000
  +3.00000000000e+000
  +3.00000000000e+000
  +3.00000000000e+000
  +3.00000000000e+000
  +3.00000000000e+000
</dep>
<dep out.Vt time>
  +2.01559718896e+000
  +3.00159031832e+000
  +3.00857744189e+000
  +3.01001004073e+000
  +3.00525010669e+000
  +2.64939889679e+000
  +1.24898106890e+000
  +1.36622321391e-001
  -1.90193105700e-002
  +5.29864453232e-002
  +8.00677340532e-001
  +2.15779779044e+000
  +3.00243840286e+000
  +3.00900321333e+000
  +3.00980071870e+000
  +3.00448876150e+000
  +2.51052684762e+000
  +1.11608159934e+000
  +6.52084869887e-002
  -1.17678920802e-002
  +6.08033421638e-002
  +9.23983760656e-001
  +2.29964154978e+000
  +3.00327945003e+000
  +3.00936821487e+000
  +3.00952802696e+000
  +3.00368922475e+000
  +2.37014948655e+000
  +9.87499542880e-001
  +8.19008919251e-003
  -4.51672413775e-003
  +7.26724950466e-002
  +1.05136606600e+000
  +2.44064010858e+000
  +3.00409388779e+000
  +3.00967133063e+000
  +3.00919390815e+000
  +3.00285798513e+000
  +2.22837818297e+000
  +8.61919800225e-001
  -2.98342094354e-002
  +2.72969930310e-003
  +1.08793334046e-001
  +1.18232506841e+000
  +2.58031112291e+000
  +3.00487729575e+000
  +3.00991493007e+000
  +3.00879573965e+000
  +3.00201166694e+000
  +2.08640642291e+000
  +7.40237215695e-001
  -4.73587939818e-002
  +9.96084345324e-003
  +1.79686886786e-001
  +1.31636698276e+000
  +2.71817947640e+000
  +3.00561557709e+000
  +3.01009037525e+000
  +3.00834171673e+000
  +3.00116816270e+000
  +1.94465633976e+000
  +6.24031107839e-001
  -5.04234741692e-002
  +1.71647326723e-002
  +2.64885296770e-001
  +1.45299977268e+000
  +2.85369005962e+000
  +3.00631169491e+000
  +3.01020448191e+000
  +3.00782932817e+000
  +3.00040493922e+000
  +1.80237818129e+000
  +5.13382900070e-001
  -4.66813274853e-002
  +2.43326163542e-002
  +3.59014557174e-001
  +1.59173149332e+000
  +2.97497881380e+000
  +3.00695672935e+000
  +3.01025152330e+000
  +3.00726019048e+000
