<Qucs Dataset 0.0.18>
<indep acfrequency 19>
  +1.00000000000e+003
  +1.50000000000e+003
  +2.00000000000e+003
  +2.50000000000e+003
  +3.00000000000e+003
  +3.50000000000e+003
  +4.00000000000e+003
  +4.50000000000e+003
  +5.00000000000e+003
  +5.50000000000e+003
  +6.00000000000e+003
  +6.50000000000e+003
  +7.00000000000e+003
  +7.50000000000e+003
  +8.00000000000e+003
  +8.50000000000e+003
  +9.00000000000e+003
  +9.50000000000e+003
  +1.00000000000e+004
</indep>
<indep time 110>
  +0.00000000000e+000
  +9.17431192661e-005
  +1.83486238532e-004
  +2.75229357798e-004
  +3.66972477064e-004
  +4.58715596330e-004
  +5.50458715596e-004
  +6.42201834862e-004
  +7.33944954128e-004
  +8.25688073394e-004
  +9.17431192661e-004
  +1.00917431193e-003
  +1.10091743119e-003
  +1.19266055046e-003
  +1.28440366972e-003
  +1.37614678899e-003
  +1.46788990826e-003
  +1.55963302752e-003
  +1.65137614679e-003
  +1.74311926606e-003
  +1.83486238532e-003
  +1.92660550459e-003
  +2.01834862385e-003
  +2.11009174312e-003
  +2.20183486239e-003
  +2.29357798165e-003
  +2.38532110092e-003
  +2.47706422018e-003
  +2.56880733945e-003
  +2.66055045872e-003
  +2.75229357798e-003
  +2.84403669725e-003
  +2.93577981651e-003
  +3.02752293578e-003
  +3.11926605505e-003
  +3.21100917431e-003
  +3.30275229358e-003
  +3.39449541284e-003
  +3.48623853211e-003
  +3.57798165138e-003
  +3.66972477064e-003
  +3.76146788991e-003
  +3.85321100917e-003
  +3.94495412844e-003
  +4.03669724771e-003
  +4.12844036697e-003
  +4.22018348624e-003
  +4.31192660550e-003
  +4.40366972477e-003
  +4.49541284404e-003
  +4.58715596330e-003
  +4.67889908257e-003
  +4.77064220183e-003
  +4.86238532110e-003
  +4.95412844037e-003
  +5.04587155963e-003
  +5.13761467890e-003
  +5.22935779817e-003
  +5.32110091743e-003
  +5.41284403670e-003
  +5.50458715596e-003
  +5.59633027523e-003
  +5.68807339450e-003
  +5.77981651376e-003
  +5.87155963303e-003
  +5.96330275229e-003
  +6.05504587156e-003
  +6.14678899083e-003
  +6.23853211009e-003
  +6.33027522936e-003
  +6.42201834862e-003
  +6.51376146789e-003
  +6.60550458716e-003
  +6.69724770642e-003
  +6.78899082569e-003
  +6.88073394495e-003
  +6.97247706422e-003
  +7.06422018349e-003
  +7.15596330275e-003
  +7.24770642202e-003
  +7.33944954128e-003
  +7.43119266055e-003
  +7.52293577982e-003
  +7.61467889908e-003
  +7.70642201835e-003
  +7.79816513761e-003
  +7.88990825688e-003
  +7.98165137615e-003
  +8.07339449541e-003
  +8.16513761468e-003
  +8.25688073394e-003
  +8.34862385321e-003
  +8.44036697248e-003
  +8.53211009174e-003
  +8.62385321101e-003
  +8.71559633028e-003
  +8.80733944954e-003
  +8.89908256881e-003
  +8.99082568807e-003
  +9.08256880734e-003
  +9.17431192661e-003
  +9.26605504587e-003
  +9.35779816514e-003
  +9.44954128440e-003
  +9.54128440367e-003
  +9.63302752294e-003
  +9.72477064220e-003
  +9.81651376147e-003
  +9.90825688073e-003
  +1.00000000000e-002
</indep>
<dep V1.i acfrequency>
  +1.15597033473e-008+j5.64588315927e-008
  +1.17200551814e-008+j8.46877021250e-008
  +1.19445442881e-008+j1.12915918356e-007
  +1.22331672067e-008+j1.41143262212e-007
  +1.25859194880e-008+j1.69369515641e-007
  +1.30027956939e-008+j1.97594460618e-007
  +1.34837893985e-008+j2.25817879153e-007
  +1.40288931883e-008+j2.54039553298e-007
  +1.46380986614e-008+j2.82259265143e-007
  +1.53113964290e-008+j3.10476796834e-007
  +1.60487761153e-008+j3.38691930571e-007
  +1.68502263579e-008+j3.66904448615e-007
  +1.77157348082e-008+j3.95114133296e-007
  +1.86452881320e-008+j4.23320767013e-007
  +1.96388720102e-008+j4.51524132253e-007
  +2.06964711386e-008+j4.79724011573e-007
  +2.18180692294e-008+j5.07920187629e-007
  +2.30036490112e-008+j5.36112443169e-007
  +2.42531922300e-008+j5.64300561042e-007
</dep>
<dep V2.i acfrequency>
  -1.62525329219e-009-j1.05699402103e-007
  -1.80240250884e-009-j1.58548501732e-007
  -2.05040759579e-009-j2.11396879672e-007
  -2.36926473410e-009-j2.64244295387e-007
  -2.75896901791e-009-j3.17090508368e-007
  -3.21951444944e-009-j3.69935278136e-007
  -3.75089393746e-009-j4.22778364250e-007
  -4.35309930977e-009-j4.75619526310e-007
  -5.02612129608e-009-j5.28458523969e-007
  -5.76994954230e-009-j5.81295116932e-007
  -6.58457260053e-009-j6.34129064968e-007
  -7.46997794336e-009-j6.86960127913e-007
  -8.42615194704e-009-j7.39788065677e-007
  -9.45307990577e-009-j7.92612638251e-007
  -1.05507460239e-008-j8.45433605711e-007
  -1.17191334229e-008-j8.98250728228e-007
  -1.29582241340e-008-j9.51063766069e-007
  -1.42679991124e-008-j1.00387247961e-006
  -1.56484382205e-008-j1.05667662933e-006
</dep>
<dep V3.i acfrequency>
  -1.62525329219e-009-j1.05699402103e-007
  -1.80240250884e-009-j1.58548501732e-007
  -2.05040759579e-009-j2.11396879672e-007
  -2.36926473410e-009-j2.64244295387e-007
  -2.75896901791e-009-j3.17090508368e-007
  -3.21951444944e-009-j3.69935278136e-007
  -3.75089393746e-009-j4.22778364250e-007
  -4.35309930977e-009-j4.75619526310e-007
  -5.02612129608e-009-j5.28458523969e-007
  -5.76994954230e-009-j5.81295116932e-007
  -6.58457260053e-009-j6.34129064968e-007
  -7.46997794336e-009-j6.86960127913e-007
  -8.42615194704e-009-j7.39788065677e-007
  -9.45307990577e-009-j7.92612638251e-007
  -1.05507460239e-008-j8.45433605711e-007
  -1.17191334229e-008-j8.98250728228e-007
  -1.29582241340e-008-j9.51063766069e-007
  -1.42679991124e-008-j1.00387247961e-006
  -1.56484382205e-008-j1.05667662933e-006
</dep>
<dep out.v acfrequency>
  +1.15597033473e-003+j5.64588315927e-003
  +1.17200551814e-003+j8.46877021250e-003
  +1.19445442881e-003+j1.12915918356e-002
  +1.22331672067e-003+j1.41143262212e-002
  +1.25859194880e-003+j1.69369515641e-002
  +1.30027956939e-003+j1.97594460618e-002
  +1.34837893985e-003+j2.25817879153e-002
  +1.40288931883e-003+j2.54039553298e-002
  +1.46380986614e-003+j2.82259265143e-002
  +1.53113964290e-003+j3.10476796834e-002
  +1.60487761153e-003+j3.38691930571e-002
  +1.68502263579e-003+j3.66904448615e-002
  +1.77157348082e-003+j3.95114133296e-002
  +1.86452881320e-003+j4.23320767013e-002
  +1.96388720102e-003+j4.51524132253e-002
  +2.06964711386e-003+j4.79724011573e-002
  +2.18180692294e-003+j5.07920187629e-002
  +2.30036490112e-003+j5.36112443169e-002
  +2.42531922300e-003+j5.64300561042e-002
</dep>
<dep _net1.v acfrequency>
  +0.00000000000e+000
  +0.00000000000e+000
  +0.00000000000e+000
  +0.00000000000e+000
  +0.00000000000e+000
  +0.00000000000e+000
  +0.00000000000e+000
  +0.00000000000e+000
  +0.00000000000e+000
  +0.00000000000e+000
  +0.00000000000e+000
  +0.00000000000e+000
  +0.00000000000e+000
  +0.00000000000e+000
  +0.00000000000e+000
  +0.00000000000e+000
  +0.00000000000e+000
  +0.00000000000e+000
  +0.00000000000e+000
</dep>
<dep _net0.v acfrequency>
  +2.49999951242e+000-j3.17098206310e-005
  +2.49999945928e+000-j4.75645505197e-005
  +2.49999938488e+000-j6.34190639015e-005
  +2.49999928922e+000-j7.92732886160e-005
  +2.49999917231e+000-j9.51271525103e-005
  +2.49999903415e+000-j1.10980583441e-004
  +2.49999887473e+000-j1.26833509275e-004
  +2.49999869407e+000-j1.42685857893e-004
  +2.49999849216e+000-j1.58537557191e-004
  +2.49999826902e+000-j1.74388535080e-004
  +2.49999802463e+000-j1.90238719490e-004
  +2.49999775901e+000-j2.06088038374e-004
  +2.49999747215e+000-j2.21936419703e-004
  +2.49999716408e+000-j2.37783791475e-004
  +2.49999683478e+000-j2.53630081713e-004
  +2.49999648426e+000-j2.69475218468e-004
  +2.49999611253e+000-j2.85319129821e-004
  +2.49999571960e+000-j3.01161743882e-004
  +2.49999530547e+000-j3.17002988798e-004
</dep>
<dep in.v acfrequency>
  +2.50000000000e+000
  +2.50000000000e+000
  +2.50000000000e+000
  +2.50000000000e+000
  +2.50000000000e+000
  +2.50000000000e+000
  +2.50000000000e+000
  +2.50000000000e+000
  +2.50000000000e+000
  +2.50000000000e+000
  +2.50000000000e+000
  +2.50000000000e+000
  +2.50000000000e+000
  +2.50000000000e+000
  +2.50000000000e+000
  +2.50000000000e+000
  +2.50000000000e+000
  +2.50000000000e+000
  +2.50000000000e+000
</dep>
<dep _net2.v acfrequency>
  +0.00000000000e+000
  +0.00000000000e+000
  +0.00000000000e+000
  +0.00000000000e+000
  +0.00000000000e+000
  +0.00000000000e+000
  +0.00000000000e+000
  +0.00000000000e+000
  +0.00000000000e+000
  +0.00000000000e+000
  +0.00000000000e+000
  +0.00000000000e+000
  +0.00000000000e+000
  +0.00000000000e+000
  +0.00000000000e+000
  +0.00000000000e+000
  +0.00000000000e+000
  +0.00000000000e+000
  +0.00000000000e+000
</dep>
<dep V1.It time>
  -2.72736736491e-006
  -2.69634285785e-006
  -2.71409260441e-006
  -2.73223516693e-006
  -2.75011992159e-006
  -2.76898062768e-006
  -7.70946657756e-006
  -1.90831739514e-005
  -2.43999006022e-005
  -2.17873423609e-005
  -1.21436306932e-005
  -2.67501205799e-006
  -2.69798107727e-006
  -2.71600425419e-006
  -2.73396332382e-006
  -2.75195502430e-006
  -2.77123827772e-006
  -9.00378217989e-006
  -1.99402466305e-005
  -2.45024603806e-005
  -2.11007802827e-005
  -1.09090860469e-005
  -2.67894735280e-006
  -2.70009261754e-006
  -2.71787961375e-006
  -2.73576598893e-006
  -2.75368178800e-006
  -2.77403871539e-006
  -1.02803304861e-005
  -2.07309394410e-005
  -2.45229767744e-005
  -2.03441133665e-005
  -9.64465796735e-006
  -2.68179565093e-006
  -2.70162330573e-006
  -2.71954067611e-006
  -2.73767434976e-006
  -2.75543946864e-006
  -2.77712001446e-006
  -1.15306094754e-005
  -2.14527795118e-005
  -2.44614669548e-005
  -1.95200200286e-005
  -8.35743499144e-006
  -2.68415862878e-006
  -2.70351943832e-006
  -2.72126005805e-006
  -2.73950873776e-006
  -2.75717658188e-006
  -2.78069920617e-006
  -1.27479577705e-005
  -2.21035351309e-005
  -2.43181420025e-005
  -1.86314315802e-005
  -7.05669313335e-006
  -2.68586082098e-006
  -2.70473841133e-006
  -2.72280602441e-006
  -2.74100459626e-006
  -2.75885427516e-006
  -2.78696024064e-006
  -1.39263831298e-005
  -2.26804836440e-005
  -2.40934930917e-005
  -1.76815469375e-005
  -5.75660405635e-006
  -2.68775403640e-006
  -2.70627931430e-006
  -2.72436682623e-006
  -2.74350830887e-006
  -2.76049173836e-006
  -2.95203730249e-006
  -1.50617229045e-005
  -2.31818336244e-005
  -2.37882972047e-005
  -1.66738189638e-005
  -4.48525069914e-006
  -2.69069487435e-006
  -2.70877984353e-006
  -2.72680515570e-006
  -2.74484036540e-006
  -2.76274654738e-006
  -3.88907014062e-006
  -1.61491424823e-005
  -2.36056624164e-005
  -2.34036132118e-005
  -1.56119791666e-005
  -3.32999606049e-006
  -2.69130054966e-006
  -2.70941662808e-006
  -2.72961894018e-006
  -2.74565049380e-006
  -2.76559043887e-006
  -5.11286493974e-006
  -1.71841194531e-005
  -2.39506406186e-005
  -2.29407736565e-005
  -1.45000467585e-005
  -2.70937327126e-006
  -2.69512556504e-006
  -2.71183668414e-006
  -2.73077790177e-006
  -2.74808396465e-006
  -2.76698278641e-006
  -6.40790231554e-006
  -1.81635353051e-005
  -2.42157920039e-005
  -2.24013931798e-005
  -1.33423547914e-005
  -2.67000658294e-006
</dep>
<dep V2.It time>
  +1.11851888627e-011
  -6.65859971691e-008
  -2.91892050207e-008
  +1.09737699433e-008
  +5.04739378456e-008
  +8.53914068678e-008
  +7.21693913727e-007
  +2.14663738340e-006
  +2.81963851671e-006
  +2.44827457022e-006
  +1.17528607687e-006
  -1.01060686386e-007
  -6.39244888417e-008
  -2.45719561219e-008
  +1.44493938041e-008
  +5.47406621126e-008
  +8.84155397166e-008
  +8.74114590085e-007
  +2.28275018932e-006
  +2.83579399450e-006
  +2.35564360628e-006
  +1.01464974425e-006
  -9.53046473623e-008
  -5.93778189823e-008
  -2.12312410304e-008
  +1.91927366071e-008
  +5.75687865118e-008
  +9.31131103264e-008
  +1.03481382180e-006
  +2.37897651363e-006
  +2.83296290629e-006
  +2.25483968027e-006
  +8.49278840567e-007
  -9.11050761807e-008
  -5.60824302274e-008
  -1.72021823388e-008
  +2.33629392440e-008
  +6.12714486250e-008
  +9.72587833813e-008
  +1.19921008514e-006
  +2.46189967990e-006
  +2.82121380100e-006
  +2.14507452466e-006
  +6.81095432114e-007
  -8.74843361151e-008
  -5.23679274764e-008
  -1.31839516540e-008
  +2.71282405923e-008
  +6.48673756371e-008
  +1.01849110694e-007
  +1.36086389165e-006
  +2.55769944183e-006
  +2.79793540791e-006
  +2.02785736795e-006
  +5.11095166642e-007
  -8.44893294340e-008
  -4.88548045915e-008
  -9.35777896214e-009
  +3.11574003082e-008
  +6.82545097523e-008
  +1.08556413101e-007
  +1.49628522160e-006
  +2.62662020087e-006
  +2.76458974698e-006
  +1.90212477840e-006
  +3.40753005302e-007
  -8.17074662444e-008
  -4.58257218804e-008
  -5.98957129216e-009
  +3.58171360509e-008
  +7.10846510615e-008
  +1.29322116089e-007
  +1.64051044600e-006
  +2.69002796465e-006
  +2.72132734270e-006
  +1.76979910929e-006
  +1.73037929295e-007
  -7.69205441609e-008
  -4.09270006058e-008
  -9.72689793966e-010
  +3.90791187778e-008
  +7.51870146737e-008
  +2.24931264153e-007
  +1.78138340100e-006
  +2.72793719395e-006
  +2.66767615902e-006
  +1.63037705017e-006
  +1.47825044628e-008
  -7.49981348949e-008
  -3.83028151330e-008
  +4.10652205891e-009
  +4.17922088782e-008
  +7.92775485231e-008
  +3.33141563617e-007
  +1.89540592119e-006
  +2.75596796526e-006
  +2.60448352962e-006
  +1.48375232081e-006
  -9.03209411025e-008
  -7.00477501851e-008
  -3.31224659519e-008
  +6.81982361452e-009
  +4.69337838819e-008
  +8.15757796004e-008
  +5.60868970853e-007
  +2.03014527027e-006
  +2.79609254238e-006
  +2.53015215750e-006
  +1.33247499886e-006
  -1.06965108910e-007
</dep>
<dep V3.It time>
  +1.11851888627e-011
  -6.65859971691e-008
  -2.91892050207e-008
  +1.09737699433e-008
  +5.04739378456e-008
  +8.53914068678e-008
  +7.21693913727e-007
  +2.14663738340e-006
  +2.81963851671e-006
  +2.44827457022e-006
  +1.17528607687e-006
  -1.01060686386e-007
  -6.39244888417e-008
  -2.45719561219e-008
  +1.44493938041e-008
  +5.47406621126e-008
  +8.84155397166e-008
  +8.74114590085e-007
  +2.28275018932e-006
  +2.83579399450e-006
  +2.35564360628e-006
  +1.01464974425e-006
  -9.53046473623e-008
  -5.93778189823e-008
  -2.12312410304e-008
  +1.91927366071e-008
  +5.75687865118e-008
  +9.31131103264e-008
  +1.03481382180e-006
  +2.37897651363e-006
  +2.83296290629e-006
  +2.25483968027e-006
  +8.49278840567e-007
  -9.11050761807e-008
  -5.60824302274e-008
  -1.72021823388e-008
  +2.33629392440e-008
  +6.12714486250e-008
  +9.72587833813e-008
  +1.19921008514e-006
  +2.46189967990e-006
  +2.82121380100e-006
  +2.14507452466e-006
  +6.81095432114e-007
  -8.74843361151e-008
  -5.23679274764e-008
  -1.31839516540e-008
  +2.71282405923e-008
  +6.48673756371e-008
  +1.01849110694e-007
  +1.36086389165e-006
  +2.55769944183e-006
  +2.79793540791e-006
  +2.02785736795e-006
  +5.11095166642e-007
  -8.44893294340e-008
  -4.88548045915e-008
  -9.35777896214e-009
  +3.11574003082e-008
  +6.82545097523e-008
  +1.08556413101e-007
  +1.49628522160e-006
  +2.62662020087e-006
  +2.76458974698e-006
  +1.90212477840e-006
  +3.40753005302e-007
  -8.17074662444e-008
  -4.58257218804e-008
  -5.98957129216e-009
  +3.58171360509e-008
  +7.10846510615e-008
  +1.29322116089e-007
  +1.64051044600e-006
  +2.69002796465e-006
  +2.72132734270e-006
  +1.76979910929e-006
  +1.73037929295e-007
  -7.69205441609e-008
  -4.09270006058e-008
  -9.72689793966e-010
  +3.90791187778e-008
  +7.51870146737e-008
  +2.24931264153e-007
  +1.78138340100e-006
  +2.72793719395e-006
  +2.66767615902e-006
  +1.63037705017e-006
  +1.47825044628e-008
  -7.49981348949e-008
  -3.83028151330e-008
  +4.10652205891e-009
  +4.17922088782e-008
  +7.92775485231e-008
  +3.33141563617e-007
  +1.89540592119e-006
  +2.75596796526e-006
  +2.60448352962e-006
  +1.48375232081e-006
  -9.03209411025e-008
  -7.00477501851e-008
  -3.31224659519e-008
  +6.81982361452e-009
  +4.69337838819e-008
  +8.15757796004e-008
  +5.60868970853e-007
  +2.03014527027e-006
  +2.79609254238e-006
  +2.53015215750e-006
  +1.33247499886e-006
  -1.06965108910e-007
</dep>
<dep out.Vt time>
  +2.72726326351e+000
  +2.73036571422e+000
  +2.72859073956e+000
  +2.72677648331e+000
  +2.72498800784e+000
  +2.72310193723e+000
  +2.22905334224e+000
  +1.09168260486e+000
  +5.60009939776e-001
  +8.21265763914e-001
  +1.78563693068e+000
  +2.73249879420e+000
  +2.73020189227e+000
  +2.72839957458e+000
  +2.72660366762e+000
  +2.72480449757e+000
  +2.72287617223e+000
  +2.09962178201e+000
  +1.00597533695e+000
  +5.49753961942e-001
  +8.89921971728e-001
  +1.90909139531e+000
  +2.73210526472e+000
  +2.72999073825e+000
  +2.72821203862e+000
  +2.72642340111e+000
  +2.72463182120e+000
  +2.72259612846e+000
  +1.97196695139e+000
  +9.26906055900e-001
  +5.47702322564e-001
  +9.65588663351e-001
  +2.03553420326e+000
  +2.73182043491e+000
  +2.72983766943e+000
  +2.72804593239e+000
  +2.72623256502e+000
  +2.72445605314e+000
  +2.72228799855e+000
  +1.84693905246e+000
  +8.54722048820e-001
  +5.53853304522e-001
  +1.04799799714e+000
  +2.16425650086e+000
  +2.73158413712e+000
  +2.72964805617e+000
  +2.72787399420e+000
  +2.72604912622e+000
  +2.72428234181e+000
  +2.72193007938e+000
  +1.72520422295e+000
  +7.89646486909e-001
  +5.68185799746e-001
  +1.13685684198e+000
  +2.29433068666e+000
  +2.73141391790e+000
  +2.72952615887e+000
  +2.72771939756e+000
  +2.72589954037e+000
  +2.72411457248e+000
  +2.72130397594e+000
  +1.60736168702e+000
  +7.31951635596e-001
  +5.90650690829e-001
  +1.23184530625e+000
  +2.42433959437e+000
  +2.73122459636e+000
  +2.72937206857e+000
  +2.72756331738e+000
  +2.72564916911e+000
  +2.72395082616e+000
  +2.70479626975e+000
  +1.49382770955e+000
  +6.81816637559e-001
  +6.21170279532e-001
  +1.33261810362e+000
  +2.55147493009e+000
  +2.73093051257e+000
  +2.72912201565e+000
  +2.72731948443e+000
  +2.72551596346e+000
  +2.72372534526e+000
  +2.61109298594e+000
  +1.38508575177e+000
  +6.39433758361e-001
  +6.59638678815e-001
  +1.43880208334e+000
  +2.66700039395e+000
  +2.73086994503e+000
  +2.72905833719e+000
  +2.72703810598e+000
  +2.72543495062e+000
  +2.72344095611e+000
  +2.48871350603e+000
  +1.28158805469e+000
  +6.04935938138e-001
  +7.05922634346e-001
  +1.54999532415e+000
  +2.72906267287e+000
  +2.73048744350e+000
  +2.72881633159e+000
  +2.72692220982e+000
  +2.72519160354e+000
  +2.72330172136e+000
  +2.35920976845e+000
  +1.18364646949e+000
  +5.78420799614e-001
  +7.59860682020e-001
  +1.66576452086e+000
  +2.73299934171e+000
</dep>
<dep _net1.Vt time>
  +3.00000000000e+000
  +3.00000000000e+000
  +3.00000000000e+000
  +3.00000000000e+000
  +3.00000000000e+000
  +3.00000000000e+000
  +3.00000000000e+000
  +3.00000000000e+000
  +3.00000000000e+000
  +3.00000000000e+000
  +3.00000000000e+000
  +3.00000000000e+000
  +3.00000000000e+000
  +3.00000000000e+000
  +3.00000000000e+000
  +3.00000000000e+000
  +3.00000000000e+000
  +3.00000000000e+000
  +3.00000000000e+000
  +3.00000000000e+000
  +3.00000000000e+000
  +3.00000000000e+000
  +3.00000000000e+000
  +3.00000000000e+000
  +3.00000000000e+000
  +3.00000000000e+000
  +3.00000000000e+000
  +3.00000000000e+000
  +3.00000000000e+000
  +3.00000000000e+000
  +3.00000000000e+000
  +3.00000000000e+000
  +3.00000000000e+000
  +3.00000000000e+000
  +3.00000000000e+000
  +3.00000000000e+000
  +3.00000000000e+000
  +3.00000000000e+000
  +3.00000000000e+000
  +3.00000000000e+000
  +3.00000000000e+000
  +3.00000000000e+000
  +3.00000000000e+000
  +3.00000000000e+000
  +3.00000000000e+000
  +3.00000000000e+000
  +3.00000000000e+000
  +3.00000000000e+000
  +3.00000000000e+000
  +3.00000000000e+000
  +3.00000000000e+000
  +3.00000000000e+000
  +3.00000000000e+000
  +3.00000000000e+000
  +3.00000000000e+000
  +3.00000000000e+000
  +3.00000000000e+000
  +3.00000000000e+000
  +3.00000000000e+000
  +3.00000000000e+000
  +3.00000000000e+000
  +3.00000000000e+000
  +3.00000000000e+000
  +3.00000000000e+000
  +3.00000000000e+000
  +3.00000000000e+000
  +3.00000000000e+000
  +3.00000000000e+000
  +3.00000000000e+000
  +3.00000000000e+000
  +3.00000000000e+000
  +3.00000000000e+000
  +3.00000000000e+000
  +3.00000000000e+000
  +3.00000000000e+000
  +3.00000000000e+000
  +3.00000000000e+000
  +3.00000000000e+000
  +3.00000000000e+000
  +3.00000000000e+000
  +3.00000000000e+000
